freq/Hz	Re(Z)/Ohm	-Im(Z)/Ohm	cycle number	<Ewe>/V	<I>/mA	
0.0000000E+000	0.0000000E+000	0.0000000E+000	1.000000000000000E+000	1.2381525E-001	1.6862931E+000
0.0000000E+000	0.0000000E+000	0.0000000E+000	1.000000000000000E+000	1.2381567E-001	1.7270834E+000
0.0000000E+000	0.0000000E+000	0.0000000E+000	1.000000000000000E+000	1.2381888E-001	1.7649901E+000
0.0000000E+000	0.0000000E+000	0.0000000E+000	1.000000000000000E+000	1.2383060E-001	1.7974060E+000
0.0000000E+000	0.0000000E+000	0.0000000E+000	1.000000000000000E+000	1.2382242E-001	1.8330497E+000
0.0000000E+000	0.0000000E+000	0.0000000E+000	1.000000000000000E+000	1.2381717E-001	1.8577071E+000
0.0000000E+000	0.0000000E+000	0.0000000E+000	1.000000000000000E+000	1.2383455E-001	1.8837379E+000
0.0000000E+000	0.0000000E+000	0.0000000E+000	1.000000000000000E+000	1.2382703E-001	1.9063245E+000
0.0000000E+000	0.0000000E+000	0.0000000E+000	1.000000000000000E+000	1.2381390E-001	1.9295412E+000
0.0000000E+000	0.0000000E+000	0.0000000E+000	1.000000000000000E+000	1.2381828E-001	1.9460561E+000
0.0000000E+000	0.0000000E+000	0.0000000E+000	1.000000000000000E+000	1.2382111E-001	1.9636004E+000
0.0000000E+000	0.0000000E+000	0.0000000E+000	1.000000000000000E+000	1.2382430E-001	1.9781288E+000
0.0000000E+000	0.0000000E+000	0.0000000E+000	1.000000000000000E+000	1.2382304E-001	1.9975159E+000
0.0000000E+000	0.0000000E+000	0.0000000E+000	1.000000000000000E+000	1.2382095E-001	2.0068204E+000
0.0000000E+000	0.0000000E+000	0.0000000E+000	1.000000000000000E+000	1.2382571E-001	2.0188053E+000
0.0000000E+000	0.0000000E+000	0.0000000E+000	1.000000000000000E+000	1.2382454E-001	2.0318024E+000
0.0000000E+000	0.0000000E+000	0.0000000E+000	1.000000000000000E+000	1.2381782E-001	2.0356319E+000
0.0000000E+000	0.0000000E+000	0.0000000E+000	1.000000000000000E+000	1.2383787E-001	2.0481379E+000
0.0000000E+000	0.0000000E+000	0.0000000E+000	1.000000000000000E+000	1.2382849E-001	2.0532837E+000
0.0000000E+000	0.0000000E+000	0.0000000E+000	1.000000000000000E+000	1.2382241E-001	2.0621097E+000
0.0000000E+000	0.0000000E+000	0.0000000E+000	1.000000000000000E+000	1.2381399E-001	2.0700083E+000
0.0000000E+000	0.0000000E+000	0.0000000E+000	1.000000000000000E+000	1.2382124E-001	2.0704570E+000
0.0000000E+000	0.0000000E+000	0.0000000E+000	1.000000000000000E+000	1.2382424E-001	2.0793724E+000
0.0000000E+000	0.0000000E+000	0.0000000E+000	1.000000000000000E+000	1.2382697E-001	2.0850272E+000
0.0000000E+000	0.0000000E+000	0.0000000E+000	1.000000000000000E+000	1.2381552E-001	2.0893652E+000
0.0000000E+000	0.0000000E+000	0.0000000E+000	1.000000000000000E+000	1.2382445E-001	2.0926864E+000
0.0000000E+000	0.0000000E+000	0.0000000E+000	1.000000000000000E+000	1.2381691E-001	2.0949140E+000
0.0000000E+000	0.0000000E+000	0.0000000E+000	1.000000000000000E+000	1.2382109E-001	2.0939729E+000
0.0000000E+000	0.0000000E+000	0.0000000E+000	1.000000000000000E+000	1.2382032E-001	2.1001060E+000
0.0000000E+000	0.0000000E+000	0.0000000E+000	1.000000000000000E+000	1.2382369E-001	2.1010635E+000
0.0000000E+000	0.0000000E+000	0.0000000E+000	1.000000000000000E+000	1.2382631E-001	2.1010933E+000
0.0000000E+000	0.0000000E+000	0.0000000E+000	1.000000000000000E+000	1.2382184E-001	2.1038160E+000
0.0000000E+000	0.0000000E+000	0.0000000E+000	1.000000000000000E+000	1.2382028E-001	2.1054018E+000
0.0000000E+000	0.0000000E+000	0.0000000E+000	1.000000000000000E+000	1.2382178E-001	2.1031878E+000
0.0000000E+000	0.0000000E+000	0.0000000E+000	1.000000000000000E+000	1.2383262E-001	2.1063888E+000
5.0001852E+004	1.7973924E+000	-4.6554349E-002	1.000000000000000E+000	1.2379517E-001	2.1073647E+000
3.9461480E+004	1.7998582E+000	-2.2195300E-002	1.000000000000000E+000	1.2379730E-001	2.1037886E+000
3.1147934E+004	1.8019494E+000	8.4967079E-004	1.000000000000000E+000	1.2380138E-001	2.0934141E+000
2.4588033E+004	1.8046813E+000	2.3887796E-002	1.000000000000000E+000	1.2379991E-001	2.0779359E+000
1.9410633E+004	1.8076926E+000	4.5647010E-002	1.000000000000000E+000	1.2380049E-001	2.0654378E+000
1.5318811E+004	1.8110336E+000	7.0517272E-002	1.000000000000000E+000	1.2379223E-001	2.0572238E+000
1.2089894E+004	1.8172157E+000	9.8515853E-002	1.000000000000000E+000	1.2379488E-001	2.0476127E+000
9.5475840E+003	1.8237010E+000	1.2943938E-001	1.000000000000000E+000	1.2375818E-001	2.0261557E+000
7.5337441E+003	1.8316475E+000	1.6471760E-001	1.000000000000000E+000	1.2376065E-001	2.0131547E+000
5.9476943E+003	1.8408133E+000	2.0761120E-001	1.000000000000000E+000	1.2377451E-001	2.0019977E+000
4.6935005E+003	1.8574698E+000	2.6033512E-001	1.000000000000000E+000	1.2377179E-001	1.9843589E+000
3.7038176E+003	1.8744185E+000	3.1943199E-001	1.000000000000000E+000	1.2377444E-001	1.9734815E+000
2.9240623E+003	1.8945268E+000	3.9017236E-001	1.000000000000000E+000	1.2378298E-001	1.9602757E+000
2.3077876E+003	1.9263542E+000	4.7745442E-001	1.000000000000000E+000	1.2376784E-001	1.9434750E+000
1.8217489E+003	1.9580544E+000	5.8108896E-001	1.000000000000000E+000	1.2377124E-001	1.9258735E+000
1.4377013E+003	1.9987990E+000	7.0659447E-001	1.000000000000000E+000	1.2376035E-001	1.9165605E+000
1.1346340E+003	2.0484414E+000	8.5792446E-001	1.000000000000000E+000	1.2376946E-001	1.9098738E+000
8.9585779E+002	2.1093702E+000	1.0424325E+000	1.000000000000000E+000	1.2377077E-001	1.9023863E+000
7.0703772E+002	2.1832640E+000	1.2688041E+000	1.000000000000000E+000	1.2376750E-001	1.8981954E+000
5.5803583E+002	2.2822597E+000	1.5424305E+000	1.000000000000000E+000	1.2376583E-001	1.8844495E+000
4.4042245E+002	2.4074717E+000	1.8757396E+000	1.000000000000000E+000	1.2376900E-001	1.8807055E+000
3.4766345E+002	2.5738993E+000	2.2788548E+000	1.000000000000000E+000	1.2376416E-001	1.8702564E+000
2.7438550E+002	2.7857366E+000	2.7582712E+000	1.000000000000000E+000	1.2376920E-001	1.8734601E+000
2.1659435E+002	3.0752811E+000	3.3215086E+000	1.000000000000000E+000	1.2375955E-001	1.8663263E+000
1.7103999E+002	3.4453456E+000	3.9839633E+000	1.000000000000000E+000	1.2376900E-001	1.8596209E+000
1.3495683E+002	3.9522920E+000	4.7657547E+000	1.000000000000000E+000	1.2377424E-001	1.8551321E+000
1.0653436E+002	4.6145282E+000	5.6715302E+000	1.000000000000000E+000	1.2376717E-001	1.8549272E+000
8.4111839E+001	5.5504885E+000	6.6580749E+000	1.000000000000000E+000	1.2376518E-001	1.8459122E+000
6.6380722E+001	6.7505846E+000	7.6466527E+000	1.000000000000000E+000	1.2376282E-001	1.8428390E+000
5.2397697E+001	8.2509775E+000	8.6319828E+000	1.000000000000000E+000	1.2375626E-001	1.8356867E+000
4.1363316E+001	1.0282905E+001	9.4045086E+000	1.000000000000000E+000	1.2375981E-001	1.8317007E+000
3.2649265E+001	1.2404028E+001	9.7921915E+000	1.000000000000000E+000	1.2375087E-001	1.8244365E+000
2.5766790E+001	1.4942910E+001	9.6457748E+000	1.000000000000000E+000	1.2375621E-001	1.8184204E+000
2.0331816E+001	1.7169903E+001	8.8850861E+000	1.000000000000000E+000	1.2374596E-001	1.8112680E+000
1.6053095E+001	1.8938780E+001	7.9484243E+000	1.000000000000000E+000	1.2376596E-001	1.8110818E+000
1.2668893E+001	2.0536636E+001	6.5667691E+000	1.000000000000000E+000	1.2374644E-001	1.8011822E+000
9.9968166E+000	2.1643717E+001	4.9798918E+000	1.000000000000000E+000	1.2377252E-001	1.7876503E+000
0.0000000E+000	0.0000000E+000	0.0000000E+000	2.000000000000000E+000	2.6239395E-001	2.7296852E+001
0.0000000E+000	0.0000000E+000	0.0000000E+000	2.000000000000000E+000	2.6239404E-001	2.8774628E+001
0.0000000E+000	0.0000000E+000	0.0000000E+000	2.000000000000000E+000	2.6237363E-001	2.9440952E+001
0.0000000E+000	0.0000000E+000	0.0000000E+000	2.000000000000000E+000	2.6238319E-001	2.9741140E+001
0.0000000E+000	0.0000000E+000	0.0000000E+000	2.000000000000000E+000	2.6238608E-001	2.9887047E+001
0.0000000E+000	0.0000000E+000	0.0000000E+000	2.000000000000000E+000	2.6238805E-001	2.9963526E+001
0.0000000E+000	0.0000000E+000	0.0000000E+000	2.000000000000000E+000	2.6237842E-001	3.0005772E+001
0.0000000E+000	0.0000000E+000	0.0000000E+000	2.000000000000000E+000	2.6238474E-001	3.0001822E+001
0.0000000E+000	0.0000000E+000	0.0000000E+000	2.000000000000000E+000	2.6238269E-001	2.9992487E+001
0.0000000E+000	0.0000000E+000	0.0000000E+000	2.000000000000000E+000	2.6238245E-001	2.9975912E+001
0.0000000E+000	0.0000000E+000	0.0000000E+000	2.000000000000000E+000	2.6238382E-001	2.9945065E+001
0.0000000E+000	0.0000000E+000	0.0000000E+000	2.000000000000000E+000	2.6238173E-001	2.9911552E+001
0.0000000E+000	0.0000000E+000	0.0000000E+000	2.000000000000000E+000	2.6237369E-001	2.9875145E+001
0.0000000E+000	0.0000000E+000	0.0000000E+000	2.000000000000000E+000	2.6237762E-001	2.9829611E+001
0.0000000E+000	0.0000000E+000	0.0000000E+000	2.000000000000000E+000	2.6236647E-001	2.9787470E+001
0.0000000E+000	0.0000000E+000	0.0000000E+000	2.000000000000000E+000	2.6237357E-001	2.9749279E+001
0.0000000E+000	0.0000000E+000	0.0000000E+000	2.000000000000000E+000	2.6237234E-001	2.9709591E+001
0.0000000E+000	0.0000000E+000	0.0000000E+000	2.000000000000000E+000	2.6236701E-001	2.9672029E+001
0.0000000E+000	0.0000000E+000	0.0000000E+000	2.000000000000000E+000	2.6235974E-001	2.9628479E+001
0.0000000E+000	0.0000000E+000	0.0000000E+000	2.000000000000000E+000	2.6236874E-001	2.9585775E+001
0.0000000E+000	0.0000000E+000	0.0000000E+000	2.000000000000000E+000	2.6237226E-001	2.9548769E+001
0.0000000E+000	0.0000000E+000	0.0000000E+000	2.000000000000000E+000	2.6238206E-001	2.9511578E+001
0.0000000E+000	0.0000000E+000	0.0000000E+000	2.000000000000000E+000	2.6237237E-001	2.9474209E+001
0.0000000E+000	0.0000000E+000	0.0000000E+000	2.000000000000000E+000	2.6237351E-001	2.9430151E+001
0.0000000E+000	0.0000000E+000	0.0000000E+000	2.000000000000000E+000	2.6237679E-001	2.9401089E+001
0.0000000E+000	0.0000000E+000	0.0000000E+000	2.000000000000000E+000	2.6236948E-001	2.9364935E+001
0.0000000E+000	0.0000000E+000	0.0000000E+000	2.000000000000000E+000	2.6236603E-001	2.9327400E+001
0.0000000E+000	0.0000000E+000	0.0000000E+000	2.000000000000000E+000	2.6237446E-001	2.9296577E+001
0.0000000E+000	0.0000000E+000	0.0000000E+000	2.000000000000000E+000	2.6238397E-001	2.9274593E+001
0.0000000E+000	0.0000000E+000	0.0000000E+000	2.000000000000000E+000	2.6237014E-001	2.9240578E+001
0.0000000E+000	0.0000000E+000	0.0000000E+000	2.000000000000000E+000	2.6236832E-001	2.9211163E+001
0.0000000E+000	0.0000000E+000	0.0000000E+000	2.000000000000000E+000	2.6237595E-001	2.9184540E+001
0.0000000E+000	0.0000000E+000	0.0000000E+000	2.000000000000000E+000	2.6237413E-001	2.9150707E+001
0.0000000E+000	0.0000000E+000	0.0000000E+000	2.000000000000000E+000	2.6237237E-001	2.9127695E+001
0.0000000E+000	0.0000000E+000	0.0000000E+000	2.000000000000000E+000	2.6237392E-001	2.9094984E+001
0.0000000E+000	0.0000000E+000	0.0000000E+000	2.000000000000000E+000	2.6237461E-001	2.9073124E+001
0.0000000E+000	0.0000000E+000	0.0000000E+000	2.000000000000000E+000	2.6237592E-001	2.9052872E+001
0.0000000E+000	0.0000000E+000	0.0000000E+000	2.000000000000000E+000	2.6236811E-001	2.9023399E+001
0.0000000E+000	0.0000000E+000	0.0000000E+000	2.000000000000000E+000	2.6236868E-001	2.9001080E+001
5.0001852E+004	1.8053588E+000	-4.5417171E-002	2.000000000000000E+000	2.6237246E-001	2.8835737E+001
3.9461480E+004	1.8048005E+000	-2.0692397E-002	2.000000000000000E+000	2.6237160E-001	2.8739925E+001
3.1147934E+004	1.8073782E+000	2.6054459E-003	2.000000000000000E+000	2.6237339E-001	2.8604254E+001
2.4588033E+004	1.8111266E+000	2.5090856E-002	2.000000000000000E+000	2.6236790E-001	2.8482533E+001
1.9410633E+004	1.8136944E+000	4.9325299E-002	2.000000000000000E+000	2.6236913E-001	2.8411364E+001
1.5318811E+004	1.8205061E+000	7.1633801E-002	2.000000000000000E+000	2.6236695E-001	2.8301748E+001
1.2089894E+004	1.8248829E+000	9.9636175E-002	2.000000000000000E+000	2.6236722E-001	2.8236259E+001
9.5475840E+003	1.8351398E+000	1.3186936E-001	2.000000000000000E+000	2.6233587E-001	2.8138475E+001
7.5337441E+003	1.8466170E+000	1.6791408E-001	2.000000000000000E+000	2.6234776E-001	2.8064772E+001
5.9476943E+003	1.8641144E+000	2.0963174E-001	2.000000000000000E+000	2.6235783E-001	2.7994961E+001
4.6935005E+003	1.8872426E+000	2.5511011E-001	2.000000000000000E+000	2.6235020E-001	2.7909021E+001
3.7038176E+003	1.9124737E+000	3.0986378E-001	2.000000000000000E+000	2.6235643E-001	2.7829674E+001
2.9240623E+003	1.9513533E+000	3.7244749E-001	2.000000000000000E+000	2.6235819E-001	2.7750923E+001
2.3077876E+003	2.0009553E+000	4.4187036E-001	2.000000000000000E+000	2.6235819E-001	2.7669844E+001
1.8217489E+003	2.0652189E+000	5.2227229E-001	2.000000000000000E+000	2.6236191E-001	2.7601450E+001
1.4377013E+003	2.1447597E+000	6.0790735E-001	2.000000000000000E+000	2.6235348E-001	2.7534620E+001
1.1346340E+003	2.2493262E+000	6.9687951E-001	2.000000000000000E+000	2.6235276E-001	2.7469635E+001
8.9585779E+002	2.3854644E+000	7.8300744E-001	2.000000000000000E+000	2.6235771E-001	2.7406511E+001
7.0703772E+002	2.5454237E+000	8.5785460E-001	2.000000000000000E+000	2.6236755E-001	2.7351137E+001
5.5803583E+002	2.7343223E+000	9.0993094E-001	2.000000000000000E+000	2.6236382E-001	2.7294327E+001
4.4042245E+002	2.9407632E+000	9.2856032E-001	2.000000000000000E+000	2.6235959E-001	2.7238525E+001
3.4766345E+002	3.1481383E+000	9.0350652E-001	2.000000000000000E+000	2.6236781E-001	2.7185179E+001
2.7438550E+002	3.3504860E+000	8.3819473E-001	2.000000000000000E+000	2.6235914E-001	2.7129934E+001
2.1659435E+002	3.5219784E+000	7.4365318E-001	2.000000000000000E+000	2.6234934E-001	2.7072493E+001
1.7103999E+002	3.6563592E+000	6.2478793E-001	2.000000000000000E+000	2.6235157E-001	2.7019129E+001
1.3495683E+002	3.7598562E+000	4.9392420E-001	2.000000000000000E+000	2.6234958E-001	2.6970850E+001
1.0653436E+002	3.8176401E+000	3.7011501E-001	2.000000000000000E+000	2.6234964E-001	2.6913147E+001
8.4111839E+001	3.8545978E+000	2.5340915E-001	2.000000000000000E+000	2.6235187E-001	2.6861889E+001
6.6380722E+001	3.8609831E+000	1.4928411E-001	2.000000000000000E+000	2.6235300E-001	2.6808321E+001
5.2397697E+001	3.8446560E+000	6.5501153E-002	2.000000000000000E+000	2.6236314E-001	2.6758495E+001
4.1363316E+001	3.8312211E+000	-7.7374219E-003	2.000000000000000E+000	2.6236835E-001	2.6716309E+001
3.2649265E+001	3.8035901E+000	-6.4927481E-002	2.000000000000000E+000	2.6235098E-001	2.6657711E+001
2.5766790E+001	3.7626727E+000	-1.1566056E-001	2.000000000000000E+000	2.6234913E-001	2.6603827E+001
2.0331816E+001	3.7277591E+000	-1.5100831E-001	2.000000000000000E+000	2.6235130E-001	2.6556440E+001
1.6053095E+001	3.6912255E+000	-1.7508350E-001	2.000000000000000E+000	2.6235527E-001	2.6518650E+001
1.2668893E+001	3.6490614E+000	-1.9176428E-001	2.000000000000000E+000	2.6233667E-001	2.6452248E+001
9.9968166E+000	3.6023660E+000	-2.0438839E-001	2.000000000000000E+000	2.6235467E-001	2.6403111E+001
0.0000000E+000	0.0000000E+000	0.0000000E+000	3.000000000000000E+000	4.0067208E-001	7.7732407E+001
0.0000000E+000	0.0000000E+000	0.0000000E+000	3.000000000000000E+000	4.0067339E-001	7.8508423E+001
0.0000000E+000	0.0000000E+000	0.0000000E+000	3.000000000000000E+000	4.0066585E-001	7.8683235E+001
0.0000000E+000	0.0000000E+000	0.0000000E+000	3.000000000000000E+000	4.0067917E-001	7.8670341E+001
0.0000000E+000	0.0000000E+000	0.0000000E+000	3.000000000000000E+000	4.0067366E-001	7.8595642E+001
0.0000000E+000	0.0000000E+000	0.0000000E+000	3.000000000000000E+000	4.0067169E-001	7.8506050E+001
0.0000000E+000	0.0000000E+000	0.0000000E+000	3.000000000000000E+000	4.0066734E-001	7.8398628E+001
0.0000000E+000	0.0000000E+000	0.0000000E+000	3.000000000000000E+000	4.0066275E-001	7.8284035E+001
0.0000000E+000	0.0000000E+000	0.0000000E+000	3.000000000000000E+000	4.0066651E-001	7.8179413E+001
0.0000000E+000	0.0000000E+000	0.0000000E+000	3.000000000000000E+000	4.0066671E-001	7.8080177E+001
0.0000000E+000	0.0000000E+000	0.0000000E+000	3.000000000000000E+000	4.0066621E-001	7.7973038E+001
0.0000000E+000	0.0000000E+000	0.0000000E+000	3.000000000000000E+000	4.0067202E-001	7.7878166E+001
0.0000000E+000	0.0000000E+000	0.0000000E+000	3.000000000000000E+000	4.0067497E-001	7.7785957E+001
0.0000000E+000	0.0000000E+000	0.0000000E+000	3.000000000000000E+000	4.0066880E-001	7.7688148E+001
0.0000000E+000	0.0000000E+000	0.0000000E+000	3.000000000000000E+000	4.0066564E-001	7.7595284E+001
0.0000000E+000	0.0000000E+000	0.0000000E+000	3.000000000000000E+000	4.0067473E-001	7.7519119E+001
0.0000000E+000	0.0000000E+000	0.0000000E+000	3.000000000000000E+000	4.0066823E-001	7.7424332E+001
0.0000000E+000	0.0000000E+000	0.0000000E+000	3.000000000000000E+000	4.0066409E-001	7.7348640E+001
0.0000000E+000	0.0000000E+000	0.0000000E+000	3.000000000000000E+000	4.0067735E-001	7.7269211E+001
0.0000000E+000	0.0000000E+000	0.0000000E+000	3.000000000000000E+000	4.0067482E-001	7.7191513E+001
0.0000000E+000	0.0000000E+000	0.0000000E+000	3.000000000000000E+000	4.0067223E-001	7.7110306E+001
0.0000000E+000	0.0000000E+000	0.0000000E+000	3.000000000000000E+000	4.0066215E-001	7.7031830E+001
0.0000000E+000	0.0000000E+000	0.0000000E+000	3.000000000000000E+000	4.0066993E-001	7.6962280E+001
0.0000000E+000	0.0000000E+000	0.0000000E+000	3.000000000000000E+000	4.0068066E-001	7.6890945E+001
0.0000000E+000	0.0000000E+000	0.0000000E+000	3.000000000000000E+000	4.0067190E-001	7.6820160E+001
0.0000000E+000	0.0000000E+000	0.0000000E+000	3.000000000000000E+000	4.0066904E-001	7.6751442E+001
0.0000000E+000	0.0000000E+000	0.0000000E+000	3.000000000000000E+000	4.0067235E-001	7.6679161E+001
0.0000000E+000	0.0000000E+000	0.0000000E+000	3.000000000000000E+000	4.0067884E-001	7.6612679E+001
0.0000000E+000	0.0000000E+000	0.0000000E+000	3.000000000000000E+000	4.0066797E-001	7.6547180E+001
0.0000000E+000	0.0000000E+000	0.0000000E+000	3.000000000000000E+000	4.0066105E-001	7.6477951E+001
0.0000000E+000	0.0000000E+000	0.0000000E+000	3.000000000000000E+000	4.0067354E-001	7.6425629E+001
0.0000000E+000	0.0000000E+000	0.0000000E+000	3.000000000000000E+000	4.0067697E-001	7.6360161E+001
0.0000000E+000	0.0000000E+000	0.0000000E+000	3.000000000000000E+000	4.0066457E-001	7.6296768E+001
0.0000000E+000	0.0000000E+000	0.0000000E+000	3.000000000000000E+000	4.0065959E-001	7.6233940E+001
0.0000000E+000	0.0000000E+000	0.0000000E+000	3.000000000000000E+000	4.0066469E-001	7.6178467E+001
0.0000000E+000	0.0000000E+000	0.0000000E+000	3.000000000000000E+000	4.0066192E-001	7.6119621E+001
0.0000000E+000	0.0000000E+000	0.0000000E+000	3.000000000000000E+000	4.0066320E-001	7.6065590E+001
0.0000000E+000	0.0000000E+000	0.0000000E+000	3.000000000000000E+000	4.0065673E-001	7.6004105E+001
0.0000000E+000	0.0000000E+000	0.0000000E+000	3.000000000000000E+000	4.0067133E-001	7.5948868E+001
5.0001852E+004	1.8017945E+000	-4.6067614E-002	3.000000000000000E+000	4.0064105E-001	7.5502594E+001
3.9461480E+004	1.8051621E+000	-2.1724688E-002	3.000000000000000E+000	4.0063432E-001	7.5234734E+001
3.1147934E+004	1.8086901E+000	2.7202622E-003	3.000000000000000E+000	4.0064108E-001	7.4864799E+001
2.4588033E+004	1.8101897E+000	2.5930785E-002	3.000000000000000E+000	4.0064421E-001	7.4513748E+001
1.9410633E+004	1.8168169E+000	4.9229179E-002	3.000000000000000E+000	4.0064609E-001	7.4296394E+001
1.5318811E+004	1.8229622E+000	7.1601942E-002	3.000000000000000E+000	4.0064919E-001	7.3973892E+001
1.2089894E+004	1.8322036E+000	9.8424263E-002	3.000000000000000E+000	4.0063781E-001	7.3778671E+001
9.5475840E+003	1.8466259E+000	1.2593572E-001	3.000000000000000E+000	4.0061411E-001	7.3475624E+001
7.5337441E+003	1.8621773E+000	1.5810269E-001	3.000000000000000E+000	4.0061569E-001	7.3268860E+001
5.9476943E+003	1.8848087E+000	1.9041197E-001	3.000000000000000E+000	4.0063590E-001	7.3030891E+001
4.6935005E+003	1.9156084E+000	2.3028381E-001	3.000000000000000E+000	4.0063488E-001	7.2760162E+001
3.7038176E+003	1.9539949E+000	2.6787975E-001	3.000000000000000E+000	4.0064278E-001	7.2492653E+001
2.9240623E+003	2.0031316E+000	3.0732962E-001	3.000000000000000E+000	4.0064040E-001	7.2234497E+001
2.3077876E+003	2.0631843E+000	3.4413725E-001	3.000000000000000E+000	4.0064386E-001	7.1993988E+001
