freq/Hz	Re(Z)/Ohm	-Im(Z)/Ohm	cycle number	<Ewe>/V	<I>/mA	
0.0000000E+000	0.0000000E+000	0.0000000E+000	1.000000000000000E+000	1.5422225E-001	2.5434935E+000
0.0000000E+000	0.0000000E+000	0.0000000E+000	1.000000000000000E+000	1.5421656E-001	2.5900495E+000
0.0000000E+000	0.0000000E+000	0.0000000E+000	1.000000000000000E+000	1.5423320E-001	2.6336110E+000
0.0000000E+000	0.0000000E+000	0.0000000E+000	1.000000000000000E+000	1.5422851E-001	2.6697888E+000
0.0000000E+000	0.0000000E+000	0.0000000E+000	1.000000000000000E+000	1.5423074E-001	2.7144959E+000
0.0000000E+000	0.0000000E+000	0.0000000E+000	1.000000000000000E+000	1.5422930E-001	2.7318032E+000
0.0000000E+000	0.0000000E+000	0.0000000E+000	1.000000000000000E+000	1.5422425E-001	2.7565784E+000
0.0000000E+000	0.0000000E+000	0.0000000E+000	1.000000000000000E+000	1.5423650E-001	2.7834122E+000
0.0000000E+000	0.0000000E+000	0.0000000E+000	1.000000000000000E+000	1.5422431E-001	2.8010941E+000
0.0000000E+000	0.0000000E+000	0.0000000E+000	1.000000000000000E+000	1.5422960E-001	2.8237422E+000
0.0000000E+000	0.0000000E+000	0.0000000E+000	1.000000000000000E+000	1.5423316E-001	2.8294523E+000
0.0000000E+000	0.0000000E+000	0.0000000E+000	1.000000000000000E+000	1.5422972E-001	2.8404367E+000
0.0000000E+000	0.0000000E+000	0.0000000E+000	1.000000000000000E+000	1.5422212E-001	2.8589263E+000
0.0000000E+000	0.0000000E+000	0.0000000E+000	1.000000000000000E+000	1.5424171E-001	2.8671238E+000
0.0000000E+000	0.0000000E+000	0.0000000E+000	1.000000000000000E+000	1.5423104E-001	2.8746781E+000
0.0000000E+000	0.0000000E+000	0.0000000E+000	1.000000000000000E+000	1.5422790E-001	2.8800786E+000
0.0000000E+000	0.0000000E+000	0.0000000E+000	1.000000000000000E+000	1.5422885E-001	2.8877077E+000
0.0000000E+000	0.0000000E+000	0.0000000E+000	1.000000000000000E+000	1.5423302E-001	2.8946187E+000
0.0000000E+000	0.0000000E+000	0.0000000E+000	1.000000000000000E+000	1.5423712E-001	2.8976407E+000
0.0000000E+000	0.0000000E+000	0.0000000E+000	1.000000000000000E+000	1.5422703E-001	2.9040432E+000
0.0000000E+000	0.0000000E+000	0.0000000E+000	1.000000000000000E+000	1.5422511E-001	2.9050605E+000
0.0000000E+000	0.0000000E+000	0.0000000E+000	1.000000000000000E+000	1.5423554E-001	2.9075139E+000
0.0000000E+000	0.0000000E+000	0.0000000E+000	1.000000000000000E+000	1.5422598E-001	2.9121511E+000
0.0000000E+000	0.0000000E+000	0.0000000E+000	1.000000000000000E+000	1.5422784E-001	2.9128990E+000
0.0000000E+000	0.0000000E+000	0.0000000E+000	1.000000000000000E+000	1.5423489E-001	2.9179554E+000
0.0000000E+000	0.0000000E+000	0.0000000E+000	1.000000000000000E+000	1.5422478E-001	2.9146342E+000
0.0000000E+000	0.0000000E+000	0.0000000E+000	1.000000000000000E+000	1.5423541E-001	2.9249089E+000
0.0000000E+000	0.0000000E+000	0.0000000E+000	1.000000000000000E+000	1.5423548E-001	2.9168484E+000
0.0000000E+000	0.0000000E+000	0.0000000E+000	1.000000000000000E+000	1.5422653E-001	2.9123905E+000
0.0000000E+000	0.0000000E+000	0.0000000E+000	1.000000000000000E+000	1.5422805E-001	2.9216053E+000
0.0000000E+000	0.0000000E+000	0.0000000E+000	1.000000000000000E+000	1.5423071E-001	2.9198401E+000
0.0000000E+000	0.0000000E+000	0.0000000E+000	1.000000000000000E+000	1.5423940E-001	2.9204981E+000
0.0000000E+000	0.0000000E+000	0.0000000E+000	1.000000000000000E+000	1.5422945E-001	2.9232509E+000
0.0000000E+000	0.0000000E+000	0.0000000E+000	1.000000000000000E+000	1.5422942E-001	2.9213359E+000
0.0000000E+000	0.0000000E+000	0.0000000E+000	1.000000000000000E+000	1.5423155E-001	2.9236398E+000
5.0001852E+004	2.2322681E+000	-2.6500080E-002	1.000000000000000E+000	1.5419781E-001	2.9135146E+000
3.9461480E+004	2.2357929E+000	-9.4670348E-004	1.000000000000000E+000	1.5421005E-001	2.9043691E+000
3.1147934E+004	2.2395608E+000	2.1805676E-002	1.000000000000000E+000	1.5420948E-001	2.9022460E+000
2.4588033E+004	2.2410593E+000	4.3260273E-002	1.000000000000000E+000	1.5421788E-001	2.8899713E+000
1.9410633E+004	2.2434931E+000	6.8882383E-002	1.000000000000000E+000	1.5421472E-001	2.8797643E+000
1.5318811E+004	2.2505767E+000	9.3568943E-002	1.000000000000000E+000	1.5421483E-001	2.8754618E+000
1.2089894E+004	2.2580376E+000	1.2668245E-001	1.000000000000000E+000	1.5421638E-001	2.8716621E+000
9.5475840E+003	2.2651439E+000	1.6014896E-001	1.000000000000000E+000	1.5419713E-001	2.8600583E+000
7.5337441E+003	2.2743785E+000	2.0142791E-001	1.000000000000000E+000	1.5420207E-001	2.8570220E+000
5.9476943E+003	2.2897794E+000	2.5087547E-001	1.000000000000000E+000	1.5421717E-001	2.8501863E+000
4.6935005E+003	2.3059840E+000	3.0744466E-001	1.000000000000000E+000	1.5422218E-001	2.8436673E+000
3.7038176E+003	2.3233297E+000	3.7467536E-001	1.000000000000000E+000	1.5421857E-001	2.8366826E+000
2.9240623E+003	2.3476772E+000	4.6035248E-001	1.000000000000000E+000	1.5421887E-001	2.8335161E+000
2.3077876E+003	2.3766444E+000	5.6190014E-001	1.000000000000000E+000	1.5422203E-001	2.8282263E+000
1.8217489E+003	2.4104412E+000	6.8623710E-001	1.000000000000000E+000	1.5422098E-001	2.8245013E+000
1.4377013E+003	2.4589875E+000	8.3724076E-001	1.000000000000000E+000	1.5421873E-001	2.8243709E+000
1.1346340E+003	2.5141788E+000	1.0221057E+000	1.000000000000000E+000	1.5421206E-001	2.8199005E+000
8.9585779E+002	2.5830152E+000	1.2478203E+000	1.000000000000000E+000	1.5422459E-001	2.8212974E+000
7.0703772E+002	2.6798699E+000	1.5159158E+000	1.000000000000000E+000	1.5422291E-001	2.8169389E+000
5.5803583E+002	2.8020508E+000	1.8555506E+000	1.000000000000000E+000	1.5422177E-001	2.8155048E+000
4.4042245E+002	2.9721684E+000	2.2527065E+000	1.000000000000000E+000	1.5421535E-001	2.8104944E+000
3.4766345E+002	3.1905298E+000	2.7381840E+000	1.000000000000000E+000	1.5421361E-001	2.8140335E+000
2.7438550E+002	3.5005715E+000	3.3098831E+000	1.000000000000000E+000	1.5421978E-001	2.8112395E+000
2.1659435E+002	3.9218314E+000	3.9792559E+000	1.000000000000000E+000	1.5421212E-001	2.8125992E+000
1.7103999E+002	4.4932580E+000	4.7419167E+000	1.000000000000000E+000	1.5421531E-001	2.8164549E+000
1.3495683E+002	5.3191490E+000	5.5521264E+000	1.000000000000000E+000	1.5421984E-001	2.8150578E+000
1.0653436E+002	6.4041924E+000	6.3918505E+000	1.000000000000000E+000	1.5423027E-001	2.8143873E+000
8.4111839E+001	7.8048887E+000	7.0997944E+000	1.000000000000000E+000	1.5422624E-001	2.8097866E+000
6.6380722E+001	9.4294243E+000	7.5620322E+000	1.000000000000000E+000	1.5421383E-001	2.8123569E+000
5.2397697E+001	1.1308501E+001	7.6471133E+000	1.000000000000000E+000	1.5422113E-001	2.8105688E+000
4.1363316E+001	1.3159695E+001	7.3216534E+000	1.000000000000000E+000	1.5421627E-001	2.8092091E+000
3.2649265E+001	1.4781595E+001	6.3045993E+000	1.000000000000000E+000	1.5421483E-001	2.8028204E+000
2.5766790E+001	1.5897422E+001	5.3132648E+000	1.000000000000000E+000	1.5421672E-001	2.7996726E+000
2.0331816E+001	1.6880812E+001	4.0793948E+000	1.000000000000000E+000	1.5420768E-001	2.7953515E+000
1.6053095E+001	1.7192724E+001	3.1642203E+000	1.000000000000000E+000	1.5420935E-001	2.7890933E+000
1.2668893E+001	1.7369165E+001	2.1505814E+000	1.000000000000000E+000	1.5419614E-001	2.7791283E+000
9.9968166E+000	1.7476023E+001	1.2999063E+000	1.000000000000000E+000	1.5421653E-001	2.7792587E+000
0.0000000E+000	0.0000000E+000	0.0000000E+000	2.000000000000000E+000	2.4885361E-001	1.5346253E+001
0.0000000E+000	0.0000000E+000	0.0000000E+000	2.000000000000000E+000	2.4885751E-001	1.6159538E+001
0.0000000E+000	0.0000000E+000	0.0000000E+000	2.000000000000000E+000	2.4885121E-001	1.6583878E+001
0.0000000E+000	0.0000000E+000	0.0000000E+000	2.000000000000000E+000	2.4885553E-001	1.6823338E+001
0.0000000E+000	0.0000000E+000	0.0000000E+000	2.000000000000000E+000	2.4885054E-001	1.6966801E+001
0.0000000E+000	0.0000000E+000	0.0000000E+000	2.000000000000000E+000	2.4885580E-001	1.7074411E+001
0.0000000E+000	0.0000000E+000	0.0000000E+000	2.000000000000000E+000	2.4884814E-001	1.7138153E+001
0.0000000E+000	0.0000000E+000	0.0000000E+000	2.000000000000000E+000	2.4884740E-001	1.7200727E+001
0.0000000E+000	0.0000000E+000	0.0000000E+000	2.000000000000000E+000	2.4885167E-001	1.7238873E+001
0.0000000E+000	0.0000000E+000	0.0000000E+000	2.000000000000000E+000	2.4885838E-001	1.7274471E+001
0.0000000E+000	0.0000000E+000	0.0000000E+000	2.000000000000000E+000	2.4884571E-001	1.7305502E+001
0.0000000E+000	0.0000000E+000	0.0000000E+000	2.000000000000000E+000	2.4885091E-001	1.7320551E+001
0.0000000E+000	0.0000000E+000	0.0000000E+000	2.000000000000000E+000	2.4885613E-001	1.7341433E+001
0.0000000E+000	0.0000000E+000	0.0000000E+000	2.000000000000000E+000	2.4885848E-001	1.7352625E+001
0.0000000E+000	0.0000000E+000	0.0000000E+000	2.000000000000000E+000	2.4885355E-001	1.7366356E+001
0.0000000E+000	0.0000000E+000	0.0000000E+000	2.000000000000000E+000	2.4885030E-001	1.7368839E+001
0.0000000E+000	0.0000000E+000	0.0000000E+000	2.000000000000000E+000	2.4885412E-001	1.7374046E+001
0.0000000E+000	0.0000000E+000	0.0000000E+000	2.000000000000000E+000	2.4885242E-001	1.7381374E+001
0.0000000E+000	0.0000000E+000	0.0000000E+000	2.000000000000000E+000	2.4884984E-001	1.7389000E+001
0.0000000E+000	0.0000000E+000	0.0000000E+000	2.000000000000000E+000	2.4884751E-001	1.7388287E+001
0.0000000E+000	0.0000000E+000	0.0000000E+000	2.000000000000000E+000	2.4884692E-001	1.7385429E+001
0.0000000E+000	0.0000000E+000	0.0000000E+000	2.000000000000000E+000	2.4884754E-001	1.7390320E+001
0.0000000E+000	0.0000000E+000	0.0000000E+000	2.000000000000000E+000	2.4884543E-001	1.7386040E+001
0.0000000E+000	0.0000000E+000	0.0000000E+000	2.000000000000000E+000	2.4884465E-001	1.7386761E+001
0.0000000E+000	0.0000000E+000	0.0000000E+000	2.000000000000000E+000	2.4884713E-001	1.7381016E+001
0.0000000E+000	0.0000000E+000	0.0000000E+000	2.000000000000000E+000	2.4884176E-001	1.7374107E+001
0.0000000E+000	0.0000000E+000	0.0000000E+000	2.000000000000000E+000	2.4885030E-001	1.7374374E+001
0.0000000E+000	0.0000000E+000	0.0000000E+000	2.000000000000000E+000	2.4884625E-001	1.7370325E+001
0.0000000E+000	0.0000000E+000	0.0000000E+000	2.000000000000000E+000	2.4885283E-001	1.7370037E+001
0.0000000E+000	0.0000000E+000	0.0000000E+000	2.000000000000000E+000	2.4884917E-001	1.7365137E+001
0.0000000E+000	0.0000000E+000	0.0000000E+000	2.000000000000000E+000	2.4885221E-001	1.7361300E+001
0.0000000E+000	0.0000000E+000	0.0000000E+000	2.000000000000000E+000	2.4886635E-001	1.7357979E+001
0.0000000E+000	0.0000000E+000	0.0000000E+000	2.000000000000000E+000	2.4884829E-001	1.7350121E+001
0.0000000E+000	0.0000000E+000	0.0000000E+000	2.000000000000000E+000	2.4884740E-001	1.7349123E+001
0.0000000E+000	0.0000000E+000	0.0000000E+000	2.000000000000000E+000	2.4886033E-001	1.7337214E+001
0.0000000E+000	0.0000000E+000	0.0000000E+000	2.000000000000000E+000	2.4885158E-001	1.7335510E+001
0.0000000E+000	0.0000000E+000	0.0000000E+000	2.000000000000000E+000	2.4884756E-001	1.7328241E+001
0.0000000E+000	0.0000000E+000	0.0000000E+000	2.000000000000000E+000	2.4885206E-001	1.7322016E+001
0.0000000E+000	0.0000000E+000	0.0000000E+000	2.000000000000000E+000	2.4886321E-001	1.7321743E+001
5.0001852E+004	2.2297900E+000	-2.4214186E-002	2.000000000000000E+000	2.4883918E-001	1.7285654E+001
3.9461480E+004	2.2333815E+000	-3.4683291E-003	2.000000000000000E+000	2.4883765E-001	1.7249126E+001
3.1147934E+004	2.2356696E+000	2.1716366E-002	2.000000000000000E+000	2.4884509E-001	1.7204035E+001
2.4588033E+004	2.2392907E+000	4.2940378E-002	2.000000000000000E+000	2.4884328E-001	1.7176859E+001
1.9410633E+004	2.2445350E+000	6.6774584E-002	2.000000000000000E+000	2.4883965E-001	1.7136330E+001
1.5318811E+004	2.2492337E+000	9.3724921E-002	2.000000000000000E+000	2.4883230E-001	1.7104980E+001
1.2089894E+004	2.2548282E+000	1.2256593E-001	2.000000000000000E+000	2.4883373E-001	1.7080637E+001
9.5475840E+003	2.2664938E+000	1.5830258E-001	2.000000000000000E+000	2.4882194E-001	1.7043720E+001
7.5337441E+003	2.2802210E+000	1.9737914E-001	2.000000000000000E+000	2.4882694E-001	1.7015781E+001
5.9476943E+003	2.2944813E+000	2.4509171E-001	2.000000000000000E+000	2.4884012E-001	1.6989723E+001
4.6935005E+003	2.3150189E+000	2.9800475E-001	2.000000000000000E+000	2.4883741E-001	1.6952639E+001
3.7038176E+003	2.3425701E+000	3.6363587E-001	2.000000000000000E+000	2.4883543E-001	1.6923416E+001
2.9240623E+003	2.3759780E+000	4.4128868E-001	2.000000000000000E+000	2.4883834E-001	1.6893297E+001
2.3077876E+003	2.4183273E+000	5.3128058E-001	2.000000000000000E+000	2.4883537E-001	1.6859343E+001
1.8217489E+003	2.4761086E+000	6.4088011E-001	2.000000000000000E+000	2.4883054E-001	1.6829987E+001
1.4377013E+003	2.5541606E+000	7.6637417E-001	2.000000000000000E+000	2.4883151E-001	1.6809332E+001
1.1346340E+003	2.6633587E+000	9.1171539E-001	2.000000000000000E+000	2.4882576E-001	1.6791023E+001
8.9585779E+002	2.8068030E+000	1.0690279E+000	2.000000000000000E+000	2.4883029E-001	1.6769398E+001
7.0703772E+002	2.9914341E+000	1.2363687E+000	2.000000000000000E+000	2.4883395E-001	1.6731997E+001
5.5803583E+002	3.2416680E+000	1.3925157E+000	2.000000000000000E+000	2.4882571E-001	1.6707205E+001
4.4042245E+002	3.5327933E+000	1.5216117E+000	2.000000000000000E+000	2.4883011E-001	1.6684145E+001
3.4766345E+002	3.8806546E+000	1.5946311E+000	2.000000000000000E+000	2.4882120E-001	1.6663771E+001
2.7438550E+002	4.2516398E+000	1.6094086E+000	2.000000000000000E+000	2.4882022E-001	1.6638792E+001
2.1659435E+002	4.6144128E+000	1.5356884E+000	2.000000000000000E+000	2.4881621E-001	1.6614876E+001
1.7103999E+002	4.9468446E+000	1.4017148E+000	2.000000000000000E+000	2.4881597E-001	1.6593140E+001
1.3495683E+002	5.2215705E+000	1.1983972E+000	2.000000000000000E+000	2.4881719E-001	1.6573490E+001
1.0653436E+002	5.4229712E+000	9.6089321E-001	2.000000000000000E+000	2.4882102E-001	1.6550337E+001
8.4111839E+001	5.5583029E+000	7.4573565E-001	2.000000000000000E+000	2.4882829E-001	1.6521431E+001
6.6380722E+001	5.6204319E+000	5.3308576E-001	2.000000000000000E+000	2.4881862E-001	1.6505598E+001
5.2397697E+001	5.6687493E+000	3.3297738E-001	2.000000000000000E+000	2.4882364E-001	1.6486879E+001
4.1363316E+001	5.6441889E+000	1.8254471E-001	2.000000000000000E+000	2.4882394E-001	1.6461380E+001
3.2649265E+001	5.6168575E+000	6.1417762E-002	2.000000000000000E+000	2.4882807E-001	1.6437799E+001
2.5766790E+001	5.5910354E+000	-5.0719984E-002	2.000000000000000E+000	2.4882162E-001	1.6419582E+001
2.0331816E+001	5.5289402E+000	-1.3129278E-001	2.000000000000000E+000	2.4882650E-001	1.6394735E+001
1.6053095E+001	5.4819832E+000	-2.0834377E-001	2.000000000000000E+000	2.4882390E-001	1.6372162E+001
1.2668893E+001	5.4139814E+000	-2.6231018E-001	2.000000000000000E+000	2.4881166E-001	1.6346783E+001
9.9968166E+000	5.3492713E+000	-2.9387033E-001	2.000000000000000E+000	2.4882093E-001	1.6325243E+001
0.0000000E+000	0.0000000E+000	0.0000000E+000	3.000000000000000E+000	3.4312168E-001	3.9966774E+001
0.0000000E+000	0.0000000E+000	0.0000000E+000	3.000000000000000E+000	3.4312475E-001	4.0608280E+001
0.0000000E+000	0.0000000E+000	0.0000000E+000	3.000000000000000E+000	3.4313497E-001	4.0848137E+001
0.0000000E+000	0.0000000E+000	0.0000000E+000	3.000000000000000E+000	3.4313667E-001	4.0942295E+001
0.0000000E+000	0.0000000E+000	0.0000000E+000	3.000000000000000E+000	3.4311956E-001	4.0980587E+001
0.0000000E+000	0.0000000E+000	0.0000000E+000	3.000000000000000E+000	3.4312582E-001	4.0985943E+001
0.0000000E+000	0.0000000E+000	0.0000000E+000	3.000000000000000E+000	3.4314290E-001	4.0981724E+001
0.0000000E+000	0.0000000E+000	0.0000000E+000	3.000000000000000E+000	3.4312442E-001	4.0961349E+001
0.0000000E+000	0.0000000E+000	0.0000000E+000	3.000000000000000E+000	3.4312862E-001	4.0942799E+001
0.0000000E+000	0.0000000E+000	0.0000000E+000	3.000000000000000E+000	3.4313959E-001	4.0916500E+001
0.0000000E+000	0.0000000E+000	0.0000000E+000	3.000000000000000E+000	3.4313378E-001	4.0886314E+001
0.0000000E+000	0.0000000E+000	0.0000000E+000	3.000000000000000E+000	3.4312829E-001	4.0852119E+001
0.0000000E+000	0.0000000E+000	0.0000000E+000	3.000000000000000E+000	3.4313080E-001	4.0825909E+001
0.0000000E+000	0.0000000E+000	0.0000000E+000	3.000000000000000E+000	3.4313691E-001	4.0792610E+001
0.0000000E+000	0.0000000E+000	0.0000000E+000	3.000000000000000E+000	3.4313330E-001	4.0765472E+001
0.0000000E+000	0.0000000E+000	0.0000000E+000	3.000000000000000E+000	3.4312788E-001	4.0732681E+001
0.0000000E+000	0.0000000E+000	0.0000000E+000	3.000000000000000E+000	3.4312996E-001	4.0703663E+001
0.0000000E+000	0.0000000E+000	0.0000000E+000	3.000000000000000E+000	3.4312516E-001	4.0671051E+001
0.0000000E+000	0.0000000E+000	0.0000000E+000	3.000000000000000E+000	3.4312555E-001	4.0640732E+001
0.0000000E+000	0.0000000E+000	0.0000000E+000	3.000000000000000E+000	3.4312093E-001	4.0614235E+001
0.0000000E+000	0.0000000E+000	0.0000000E+000	3.000000000000000E+000	3.4313929E-001	4.0577496E+001
0.0000000E+000	0.0000000E+000	0.0000000E+000	3.000000000000000E+000	3.4313148E-001	4.0552811E+001
0.0000000E+000	0.0000000E+000	0.0000000E+000	3.000000000000000E+000	3.4313419E-001	4.0530018E+001
0.0000000E+000	0.0000000E+000	0.0000000E+000	3.000000000000000E+000	3.4313703E-001	4.0495102E+001
0.0000000E+000	0.0000000E+000	0.0000000E+000	3.000000000000000E+000	3.4313619E-001	4.0467457E+001
0.0000000E+000	0.0000000E+000	0.0000000E+000	3.000000000000000E+000	3.4313035E-001	4.0444420E+001
0.0000000E+000	0.0000000E+000	0.0000000E+000	3.000000000000000E+000	3.4313071E-001	4.0413635E+001
0.0000000E+000	0.0000000E+000	0.0000000E+000	3.000000000000000E+000	3.4313422E-001	4.0388920E+001
0.0000000E+000	0.0000000E+000	0.0000000E+000	3.000000000000000E+000	3.4313065E-001	4.0364716E+001
0.0000000E+000	0.0000000E+000	0.0000000E+000	3.000000000000000E+000	3.4312117E-001	4.0335217E+001
0.0000000E+000	0.0000000E+000	0.0000000E+000	3.000000000000000E+000	3.4313717E-001	4.0313744E+001
0.0000000E+000	0.0000000E+000	0.0000000E+000	3.000000000000000E+000	3.4313884E-001	4.0284355E+001
0.0000000E+000	0.0000000E+000	0.0000000E+000	3.000000000000000E+000	3.4313351E-001	4.0261620E+001
0.0000000E+000	0.0000000E+000	0.0000000E+000	3.000000000000000E+000	3.4314165E-001	4.0240135E+001
0.0000000E+000	0.0000000E+000	0.0000000E+000	3.000000000000000E+000	3.4314394E-001	4.0213356E+001
0.0000000E+000	0.0000000E+000	0.0000000E+000	3.000000000000000E+000	3.4314045E-001	4.0189095E+001
0.0000000E+000	0.0000000E+000	0.0000000E+000	3.000000000000000E+000	3.4312931E-001	4.0168720E+001
0.0000000E+000	0.0000000E+000	0.0000000E+000	3.000000000000000E+000	3.4312800E-001	4.0140804E+001
0.0000000E+000	0.0000000E+000	0.0000000E+000	3.000000000000000E+000	3.4313002E-001	4.0120853E+001
5.0001852E+004	2.2324343E+000	-2.3726629E-002	3.000000000000000E+000	3.4311786E-001	3.9942635E+001
3.9461480E+004	2.2351358E+000	-2.2809370E-003	3.000000000000000E+000	3.4311724E-001	3.9833988E+001
3.1147934E+004	2.2369759E+000	2.3296537E-002	3.000000000000000E+000	3.4312356E-001	3.9678589E+001
2.4588033E+004	2.2400966E+000	4.3938965E-002	3.000000000000000E+000	3.4312171E-001	3.9586746E+001
1.9410633E+004	2.2464712E+000	6.7651547E-002	3.000000000000000E+000	3.4311125E-001	3.9444408E+001
1.5318811E+004	2.2530098E+000	9.4150394E-002	3.000000000000000E+000	3.4311700E-001	3.9359810E+001
1.2089894E+004	2.2609522E+000	1.2412470E-001	3.000000000000000E+000	3.4311041E-001	3.9273571E+001
9.5475840E+003	2.2734528E+000	1.5745889E-001	3.000000000000000E+000	3.4309763E-001	3.9146633E+001
7.5337441E+003	2.2897248E+000	1.9352756E-001	3.000000000000000E+000	3.4309459E-001	3.9055981E+001
5.9476943E+003	2.3104119E+000	2.3593090E-001	3.000000000000000E+000	3.4309968E-001	3.8950264E+001
4.6935005E+003	2.3366158E+000	2.8744009E-001	3.000000000000000E+000	3.4310454E-001	3.8839813E+001
3.7038176E+003	2.3730159E+000	3.4619498E-001	3.000000000000000E+000	3.4310696E-001	3.8727791E+001
2.9240623E+003	2.4163311E+000	4.1242754E-001	3.000000000000000E+000	3.4310371E-001	3.8614082E+001
2.3077876E+003	2.4789395E+000	4.8763913E-001	3.000000000000000E+000	3.4309742E-001	3.8503181E+001
