freq/Hz	Re(Z)/Ohm	-Im(Z)/Ohm	cycle number	<Ewe>/V	<I>/mA	
0.0000000E+000	0.0000000E+000	0.0000000E+000	1.000000000000000E+000	1.8142651E-001	3.1661828E+000
0.0000000E+000	0.0000000E+000	0.0000000E+000	1.000000000000000E+000	1.8143150E-001	3.2203107E+000
0.0000000E+000	0.0000000E+000	0.0000000E+000	1.000000000000000E+000	1.8144274E-001	3.2713213E+000
0.0000000E+000	0.0000000E+000	0.0000000E+000	1.000000000000000E+000	1.8143593E-001	3.3169577E+000
0.0000000E+000	0.0000000E+000	0.0000000E+000	1.000000000000000E+000	1.8143553E-001	3.3486645E+000
0.0000000E+000	0.0000000E+000	0.0000000E+000	1.000000000000000E+000	1.8144053E-001	3.3823485E+000
0.0000000E+000	0.0000000E+000	0.0000000E+000	1.000000000000000E+000	1.8144120E-001	3.4113767E+000
0.0000000E+000	0.0000000E+000	0.0000000E+000	1.000000000000000E+000	1.8144119E-001	3.4271665E+000
0.0000000E+000	0.0000000E+000	0.0000000E+000	1.000000000000000E+000	1.8143269E-001	3.4464040E+000
0.0000000E+000	0.0000000E+000	0.0000000E+000	1.000000000000000E+000	1.8144238E-001	3.4610939E+000
0.0000000E+000	0.0000000E+000	0.0000000E+000	1.000000000000000E+000	1.8144520E-001	3.4735088E+000
0.0000000E+000	0.0000000E+000	0.0000000E+000	1.000000000000000E+000	1.8144752E-001	3.4848788E+000
0.0000000E+000	0.0000000E+000	0.0000000E+000	1.000000000000000E+000	1.8143673E-001	3.4911618E+000
0.0000000E+000	0.0000000E+000	0.0000000E+000	1.000000000000000E+000	1.8145023E-001	3.5013342E+000
0.0000000E+000	0.0000000E+000	0.0000000E+000	1.000000000000000E+000	1.8145514E-001	3.5185516E+000
0.0000000E+000	0.0000000E+000	0.0000000E+000	1.000000000000000E+000	1.8144289E-001	3.5150366E+000
0.0000000E+000	0.0000000E+000	0.0000000E+000	1.000000000000000E+000	1.8144104E-001	3.5234437E+000
0.0000000E+000	0.0000000E+000	0.0000000E+000	1.000000000000000E+000	1.8145326E-001	3.5282309E+000
0.0000000E+000	0.0000000E+000	0.0000000E+000	1.000000000000000E+000	1.8144819E-001	3.5304146E+000
0.0000000E+000	0.0000000E+000	0.0000000E+000	1.000000000000000E+000	1.8144499E-001	3.5315814E+000
0.0000000E+000	0.0000000E+000	0.0000000E+000	1.000000000000000E+000	1.8145218E-001	3.5342743E+000
0.0000000E+000	0.0000000E+000	0.0000000E+000	1.000000000000000E+000	1.8145299E-001	3.5378644E+000
0.0000000E+000	0.0000000E+000	0.0000000E+000	1.000000000000000E+000	1.8145613E-001	3.5446858E+000
0.0000000E+000	0.0000000E+000	0.0000000E+000	1.000000000000000E+000	1.8143924E-001	3.5491436E+000
0.0000000E+000	0.0000000E+000	0.0000000E+000	1.000000000000000E+000	1.8144922E-001	3.5566533E+000
0.0000000E+000	0.0000000E+000	0.0000000E+000	1.000000000000000E+000	1.8145406E-001	3.5527637E+000
0.0000000E+000	0.0000000E+000	0.0000000E+000	1.000000000000000E+000	1.8144818E-001	3.5541341E+000
0.0000000E+000	0.0000000E+000	0.0000000E+000	1.000000000000000E+000	1.8144071E-001	3.5559051E+000
0.0000000E+000	0.0000000E+000	0.0000000E+000	1.000000000000000E+000	1.8143918E-001	3.5623376E+000
0.0000000E+000	0.0000000E+000	0.0000000E+000	1.000000000000000E+000	1.8145216E-001	3.5651202E+000
0.0000000E+000	0.0000000E+000	0.0000000E+000	1.000000000000000E+000	1.8145107E-001	3.5671544E+000
0.0000000E+000	0.0000000E+000	0.0000000E+000	1.000000000000000E+000	1.8144663E-001	3.5697873E+000
0.0000000E+000	0.0000000E+000	0.0000000E+000	1.000000000000000E+000	1.8144369E-001	3.5675135E+000
0.0000000E+000	0.0000000E+000	0.0000000E+000	1.000000000000000E+000	1.8144982E-001	3.5657785E+000
0.0000000E+000	0.0000000E+000	0.0000000E+000	1.000000000000000E+000	1.8144837E-001	3.5684710E+000
5.0001852E+004	2.1290138E+000	-4.9735405E-002	1.000000000000000E+000	1.8138181E-001	3.5897856E+000
3.9461480E+004	2.1325817E+000	-2.3348913E-002	1.000000000000000E+000	1.8138449E-001	3.5914061E+000
3.1147934E+004	2.1346405E+000	5.5527533E-003	1.000000000000000E+000	1.8138103E-001	3.6080017E+000
2.4588033E+004	2.1364748E+000	3.1202253E-002	1.000000000000000E+000	1.8138815E-001	3.6185441E+000
1.9410633E+004	2.1414666E+000	5.8667865E-002	1.000000000000000E+000	1.8137693E-001	3.6239085E+000
1.5318811E+004	2.1445117E+000	8.8129155E-002	1.000000000000000E+000	1.8139097E-001	3.6366484E+000
1.2089894E+004	2.1520019E+000	1.2113012E-001	1.000000000000000E+000	1.8138503E-001	3.6422176E+000
9.5475840E+003	2.1586044E+000	1.5962277E-001	1.000000000000000E+000	1.8137006E-001	3.6516984E+000
7.5337441E+003	2.1679957E+000	2.0446464E-001	1.000000000000000E+000	1.8137689E-001	3.6613464E+000
5.9476943E+003	2.1842666E+000	2.5946724E-001	1.000000000000000E+000	1.8138266E-001	3.6721683E+000
4.6935005E+003	2.1988847E+000	3.1641266E-001	1.000000000000000E+000	1.8138339E-001	3.6814067E+000
3.7038176E+003	2.2180500E+000	3.9140835E-001	1.000000000000000E+000	1.8138675E-001	3.6860073E+000
2.9240623E+003	2.2441149E+000	4.7886372E-001	1.000000000000000E+000	1.8139017E-001	3.6994367E+000
2.3077876E+003	2.2728422E+000	5.8662081E-001	1.000000000000000E+000	1.8138690E-001	3.7134433E+000
1.8217489E+003	2.3103676E+000	7.1324050E-001	1.000000000000000E+000	1.8138506E-001	3.7191057E+000
1.4377013E+003	2.3573027E+000	8.7432605E-001	1.000000000000000E+000	1.8138111E-001	3.7313056E+000
1.1346340E+003	2.4239161E+000	1.0643709E+000	1.000000000000000E+000	1.8138108E-001	3.7407117E+000
8.9585779E+002	2.5068517E+000	1.2971299E+000	1.000000000000000E+000	1.8138458E-001	3.7522414E+000
7.0703772E+002	2.6179004E+000	1.5741659E+000	1.000000000000000E+000	1.8138199E-001	3.7659872E+000
5.5803583E+002	2.7713528E+000	1.9085205E+000	1.000000000000000E+000	1.8138734E-001	3.7771256E+000
4.4042245E+002	2.9746511E+000	2.2960467E+000	1.000000000000000E+000	1.8139340E-001	3.7875748E+000
3.4766345E+002	3.2571073E+000	2.7447822E+000	1.000000000000000E+000	1.8138839E-001	3.7927899E+000
2.7438550E+002	3.6220651E+000	3.2721899E+000	1.000000000000000E+000	1.8138079E-001	3.8051205E+000
2.1659435E+002	4.1230798E+000	3.8522444E+000	1.000000000000000E+000	1.8138473E-001	3.8129246E+000
1.7103999E+002	4.7879577E+000	4.4878397E+000	1.000000000000000E+000	1.8139194E-001	3.8234296E+000
1.3495683E+002	5.6911922E+000	5.0939641E+000	1.000000000000000E+000	1.8139556E-001	3.8317740E+000
1.0653436E+002	6.7898078E+000	5.5726352E+000	1.000000000000000E+000	1.8138501E-001	3.8367658E+000
8.4111839E+001	8.1221476E+000	5.8251476E+000	1.000000000000000E+000	1.8138479E-001	3.8387775E+000
6.6380722E+001	9.5229921E+000	5.7848673E+000	1.000000000000000E+000	1.8139721E-001	3.8481650E+000
5.2397697E+001	1.0911131E+001	5.4087029E+000	1.000000000000000E+000	1.8139854E-001	3.8522625E+000
4.1363316E+001	1.2056265E+001	4.6485853E+000	1.000000000000000E+000	1.8139896E-001	3.8597877E+000
3.2649265E+001	1.2833209E+001	3.8204470E+000	1.000000000000000E+000	1.8139918E-001	3.8625255E+000
2.5766790E+001	1.3335865E+001	2.9015996E+000	1.000000000000000E+000	1.8140888E-001	3.8642018E+000
2.0331816E+001	1.3643174E+001	2.1399171E+000	1.000000000000000E+000	1.8139648E-001	3.8680203E+000
1.6053095E+001	1.3746564E+001	1.3685734E+000	1.000000000000000E+000	1.8140143E-001	3.8767371E+000
1.2668893E+001	1.3712481E+001	7.9406798E-001	1.000000000000000E+000	1.8137996E-001	3.8725462E+000
9.9968166E+000	1.3581339E+001	2.1431831E-001	1.000000000000000E+000	1.8140461E-001	3.8792701E+000
0.0000000E+000	0.0000000E+000	0.0000000E+000	2.000000000000000E+000	2.7501315E-001	1.8251553E+001
0.0000000E+000	0.0000000E+000	0.0000000E+000	2.000000000000000E+000	2.7501276E-001	1.9076252E+001
0.0000000E+000	0.0000000E+000	0.0000000E+000	2.000000000000000E+000	2.7501079E-001	1.9453314E+001
0.0000000E+000	0.0000000E+000	0.0000000E+000	2.000000000000000E+000	2.7501604E-001	1.9636408E+001
0.0000000E+000	0.0000000E+000	0.0000000E+000	2.000000000000000E+000	2.7502036E-001	1.9738466E+001
0.0000000E+000	0.0000000E+000	0.0000000E+000	2.000000000000000E+000	2.7501276E-001	1.9799091E+001
0.0000000E+000	0.0000000E+000	0.0000000E+000	2.000000000000000E+000	2.7502161E-001	1.9847219E+001
0.0000000E+000	0.0000000E+000	0.0000000E+000	2.000000000000000E+000	2.7502468E-001	1.9879747E+001
0.0000000E+000	0.0000000E+000	0.0000000E+000	2.000000000000000E+000	2.7502632E-001	1.9904123E+001
0.0000000E+000	0.0000000E+000	0.0000000E+000	2.000000000000000E+000	2.7500769E-001	1.9917976E+001
0.0000000E+000	0.0000000E+000	0.0000000E+000	2.000000000000000E+000	2.7501339E-001	1.9929094E+001
0.0000000E+000	0.0000000E+000	0.0000000E+000	2.000000000000000E+000	2.7501780E-001	1.9940775E+001
0.0000000E+000	0.0000000E+000	0.0000000E+000	2.000000000000000E+000	2.7501801E-001	1.9936691E+001
0.0000000E+000	0.0000000E+000	0.0000000E+000	2.000000000000000E+000	2.7500755E-001	1.9951546E+001
0.0000000E+000	0.0000000E+000	0.0000000E+000	2.000000000000000E+000	2.7501073E-001	1.9947891E+001
0.0000000E+000	0.0000000E+000	0.0000000E+000	2.000000000000000E+000	2.7501872E-001	1.9946758E+001
0.0000000E+000	0.0000000E+000	0.0000000E+000	2.000000000000000E+000	2.7500844E-001	1.9953445E+001
0.0000000E+000	0.0000000E+000	0.0000000E+000	2.000000000000000E+000	2.7500856E-001	1.9946997E+001
0.0000000E+000	0.0000000E+000	0.0000000E+000	2.000000000000000E+000	2.7501667E-001	1.9945530E+001
0.0000000E+000	0.0000000E+000	0.0000000E+000	2.000000000000000E+000	2.7502263E-001	1.9940170E+001
0.0000000E+000	0.0000000E+000	0.0000000E+000	2.000000000000000E+000	2.7500904E-001	1.9935030E+001
0.0000000E+000	0.0000000E+000	0.0000000E+000	2.000000000000000E+000	2.7500659E-001	1.9934738E+001
0.0000000E+000	0.0000000E+000	0.0000000E+000	2.000000000000000E+000	2.7501529E-001	1.9931410E+001
0.0000000E+000	0.0000000E+000	0.0000000E+000	2.000000000000000E+000	2.7501801E-001	1.9922928E+001
0.0000000E+000	0.0000000E+000	0.0000000E+000	2.000000000000000E+000	2.7500507E-001	1.9916958E+001
0.0000000E+000	0.0000000E+000	0.0000000E+000	2.000000000000000E+000	2.7500921E-001	1.9911993E+001
0.0000000E+000	0.0000000E+000	0.0000000E+000	2.000000000000000E+000	2.7501893E-001	1.9912613E+001
0.0000000E+000	0.0000000E+000	0.0000000E+000	2.000000000000000E+000	2.7501759E-001	1.9895357E+001
0.0000000E+000	0.0000000E+000	0.0000000E+000	2.000000000000000E+000	2.7500933E-001	1.9891405E+001
0.0000000E+000	0.0000000E+000	0.0000000E+000	2.000000000000000E+000	2.7501416E-001	1.9883121E+001
0.0000000E+000	0.0000000E+000	0.0000000E+000	2.000000000000000E+000	2.7501398E-001	1.9877916E+001
0.0000000E+000	0.0000000E+000	0.0000000E+000	2.000000000000000E+000	2.7501506E-001	1.9870855E+001
0.0000000E+000	0.0000000E+000	0.0000000E+000	2.000000000000000E+000	2.7501011E-001	1.9860592E+001
0.0000000E+000	0.0000000E+000	0.0000000E+000	2.000000000000000E+000	2.7501541E-001	1.9855486E+001
0.0000000E+000	0.0000000E+000	0.0000000E+000	2.000000000000000E+000	2.7501816E-001	1.9849045E+001
0.0000000E+000	0.0000000E+000	0.0000000E+000	2.000000000000000E+000	2.7502021E-001	1.9839800E+001
0.0000000E+000	0.0000000E+000	0.0000000E+000	2.000000000000000E+000	2.7501667E-001	1.9831661E+001
0.0000000E+000	0.0000000E+000	0.0000000E+000	2.000000000000000E+000	2.7501485E-001	1.9831623E+001
0.0000000E+000	0.0000000E+000	0.0000000E+000	2.000000000000000E+000	2.7501681E-001	1.9820532E+001
5.0001852E+004	2.1330419E+000	-5.7169829E-002	2.000000000000000E+000	2.7499101E-001	1.9755695E+001
3.9461480E+004	2.1359057E+000	-2.8670566E-002	2.000000000000000E+000	2.7500355E-001	1.9712000E+001
3.1147934E+004	2.1367142E+000	7.3709397E-004	2.000000000000000E+000	2.7498895E-001	1.9645803E+001
2.4588033E+004	2.1395526E+000	2.2337243E-002	2.000000000000000E+000	2.7499428E-001	1.9588455E+001
1.9410633E+004	2.1443384E+000	5.0812181E-002	2.000000000000000E+000	2.7499741E-001	1.9553865E+001
1.5318811E+004	2.1478744E+000	7.7687576E-002	2.000000000000000E+000	2.7500212E-001	1.9515682E+001
1.2089894E+004	2.1544809E+000	1.1119992E-001	2.000000000000000E+000	2.7499509E-001	1.9480349E+001
9.5475840E+003	2.1617575E+000	1.4608289E-001	2.000000000000000E+000	2.7498773E-001	1.9431456E+001
7.5337441E+003	2.1781356E+000	1.8858032E-001	2.000000000000000E+000	2.7499035E-001	1.9394650E+001
5.9476943E+003	2.1906977E+000	2.3234114E-001	2.000000000000000E+000	2.7499926E-001	1.9356039E+001
4.6935005E+003	2.2105675E+000	2.8669634E-001	2.000000000000000E+000	2.7498892E-001	1.9312828E+001
3.7038176E+003	2.2356136E+000	3.5418653E-001	2.000000000000000E+000	2.7499503E-001	1.9266598E+001
2.9240623E+003	2.2720537E+000	4.3179250E-001	2.000000000000000E+000	2.7498016E-001	1.9227949E+001
2.3077876E+003	2.3168774E+000	5.1899761E-001	2.000000000000000E+000	2.7500135E-001	1.9183470E+001
1.8217489E+003	2.3797367E+000	6.2592047E-001	2.000000000000000E+000	2.7499375E-001	1.9151955E+001
1.4377013E+003	2.4595788E+000	7.4626809E-001	2.000000000000000E+000	2.7499652E-001	1.9117012E+001
1.1346340E+003	2.5730093E+000	8.8401628E-001	2.000000000000000E+000	2.7498502E-001	1.9066536E+001
8.9585779E+002	2.7142868E+000	1.0283632E+000	2.000000000000000E+000	2.7497524E-001	1.9038261E+001
7.0703772E+002	2.9042833E+000	1.1722425E+000	2.000000000000000E+000	2.7497181E-001	1.9015650E+001
5.5803583E+002	3.1439652E+000	1.2996740E+000	2.000000000000000E+000	2.7497882E-001	1.8987394E+001
4.4042245E+002	3.4271889E+000	1.4002846E+000	2.000000000000000E+000	2.7498496E-001	1.8965212E+001
3.4766345E+002	3.7459826E+000	1.4460901E+000	2.000000000000000E+000	2.7498561E-001	1.8943716E+001
2.7438550E+002	4.0647302E+000	1.4286430E+000	2.000000000000000E+000	2.7499068E-001	1.8917732E+001
2.1659435E+002	4.3899069E+000	1.3495032E+000	2.000000000000000E+000	2.7499267E-001	1.8892254E+001
1.7103999E+002	4.6642566E+000	1.2165765E+000	2.000000000000000E+000	2.7499571E-001	1.8871523E+001
1.3495683E+002	4.8946452E+000	1.0373452E+000	2.000000000000000E+000	2.7498963E-001	1.8850698E+001
1.0653436E+002	5.0636234E+000	8.4747350E-001	2.000000000000000E+000	2.7498925E-001	1.8825089E+001
8.4111839E+001	5.1801820E+000	6.3921624E-001	2.000000000000000E+000	2.7499798E-001	1.8798248E+001
6.6380722E+001	5.2414355E+000	4.5968324E-001	2.000000000000000E+000	2.7499226E-001	1.8772600E+001
5.2397697E+001	5.2566705E+000	2.9362586E-001	2.000000000000000E+000	2.7498358E-001	1.8744102E+001
4.1363316E+001	5.2587986E+000	1.6584213E-001	2.000000000000000E+000	2.7498940E-001	1.8725365E+001
3.2649265E+001	5.2385960E+000	5.4898113E-002	2.000000000000000E+000	2.7497154E-001	1.8702847E+001
2.5766790E+001	5.2095466E+000	-3.0716006E-002	2.000000000000000E+000	2.7497768E-001	1.8680532E+001
2.0331816E+001	5.1565557E+000	-1.1289608E-001	2.000000000000000E+000	2.7498174E-001	1.8656019E+001
1.6053095E+001	5.1000738E+000	-1.6858810E-001	2.000000000000000E+000	2.7498552E-001	1.8636946E+001
1.2668893E+001	5.0507526E+000	-2.1223213E-001	2.000000000000000E+000	2.7497932E-001	1.8607901E+001
9.9968166E+000	4.9917560E+000	-2.4303481E-001	2.000000000000000E+000	2.7499053E-001	1.8586676E+001
0.0000000E+000	0.0000000E+000	0.0000000E+000	3.000000000000000E+000	3.6833888E-001	4.2803841E+001
0.0000000E+000	0.0000000E+000	0.0000000E+000	3.000000000000000E+000	3.6836368E-001	4.3271496E+001
0.0000000E+000	0.0000000E+000	0.0000000E+000	3.000000000000000E+000	3.6836788E-001	4.3362091E+001
0.0000000E+000	0.0000000E+000	0.0000000E+000	3.000000000000000E+000	3.6837479E-001	4.3348240E+001
0.0000000E+000	0.0000000E+000	0.0000000E+000	3.000000000000000E+000	3.6837491E-001	4.3295551E+001
0.0000000E+000	0.0000000E+000	0.0000000E+000	3.000000000000000E+000	3.6839336E-001	4.3228683E+001
0.0000000E+000	0.0000000E+000	0.0000000E+000	3.000000000000000E+000	3.6838463E-001	4.3161217E+001
0.0000000E+000	0.0000000E+000	0.0000000E+000	3.000000000000000E+000	3.6838767E-001	4.3086452E+001
0.0000000E+000	0.0000000E+000	0.0000000E+000	3.000000000000000E+000	3.6840200E-001	4.3023170E+001
0.0000000E+000	0.0000000E+000	0.0000000E+000	3.000000000000000E+000	3.6840114E-001	4.2955410E+001
0.0000000E+000	0.0000000E+000	0.0000000E+000	3.000000000000000E+000	3.6840013E-001	4.2891651E+001
0.0000000E+000	0.0000000E+000	0.0000000E+000	3.000000000000000E+000	3.6839032E-001	4.2830860E+001
0.0000000E+000	0.0000000E+000	0.0000000E+000	3.000000000000000E+000	3.6840391E-001	4.2765785E+001
0.0000000E+000	0.0000000E+000	0.0000000E+000	3.000000000000000E+000	3.6839786E-001	4.2708431E+001
0.0000000E+000	0.0000000E+000	0.0000000E+000	3.000000000000000E+000	3.6837739E-001	4.2653740E+001
0.0000000E+000	0.0000000E+000	0.0000000E+000	3.000000000000000E+000	3.6838689E-001	4.2595520E+001
0.0000000E+000	0.0000000E+000	0.0000000E+000	3.000000000000000E+000	3.6838764E-001	4.2542355E+001
0.0000000E+000	0.0000000E+000	0.0000000E+000	3.000000000000000E+000	3.6839417E-001	4.2490479E+001
0.0000000E+000	0.0000000E+000	0.0000000E+000	3.000000000000000E+000	3.6839047E-001	4.2443623E+001
0.0000000E+000	0.0000000E+000	0.0000000E+000	3.000000000000000E+000	3.6838853E-001	4.2397610E+001
0.0000000E+000	0.0000000E+000	0.0000000E+000	3.000000000000000E+000	3.6840227E-001	4.2347408E+001
0.0000000E+000	0.0000000E+000	0.0000000E+000	3.000000000000000E+000	3.6839339E-001	4.2302887E+001
0.0000000E+000	0.0000000E+000	0.0000000E+000	3.000000000000000E+000	3.6839029E-001	4.2253372E+001
0.0000000E+000	0.0000000E+000	0.0000000E+000	3.000000000000000E+000	3.6838740E-001	4.2213673E+001
0.0000000E+000	0.0000000E+000	0.0000000E+000	3.000000000000000E+000	3.6839125E-001	4.2169422E+001
0.0000000E+000	0.0000000E+000	0.0000000E+000	3.000000000000000E+000	3.6839232E-001	4.2129723E+001
0.0000000E+000	0.0000000E+000	0.0000000E+000	3.000000000000000E+000	3.6839172E-001	4.2086700E+001
0.0000000E+000	0.0000000E+000	0.0000000E+000	3.000000000000000E+000	3.6840326E-001	4.2048615E+001
0.0000000E+000	0.0000000E+000	0.0000000E+000	3.000000000000000E+000	3.6841249E-001	4.2006428E+001
0.0000000E+000	0.0000000E+000	0.0000000E+000	3.000000000000000E+000	3.6839792E-001	4.1967983E+001
0.0000000E+000	0.0000000E+000	0.0000000E+000	3.000000000000000E+000	3.6839452E-001	4.1932919E+001
0.0000000E+000	0.0000000E+000	0.0000000E+000	3.000000000000000E+000	3.6840087E-001	4.1900696E+001
0.0000000E+000	0.0000000E+000	0.0000000E+000	3.000000000000000E+000	3.6839664E-001	4.1859646E+001
0.0000000E+000	0.0000000E+000	0.0000000E+000	3.000000000000000E+000	3.6839375E-001	4.1831676E+001
0.0000000E+000	0.0000000E+000	0.0000000E+000	3.000000000000000E+000	3.6839262E-001	4.1790985E+001
0.0000000E+000	0.0000000E+000	0.0000000E+000	3.000000000000000E+000	3.6840338E-001	4.1758896E+001
0.0000000E+000	0.0000000E+000	0.0000000E+000	3.000000000000000E+000	3.6840075E-001	4.1724327E+001
0.0000000E+000	0.0000000E+000	0.0000000E+000	3.000000000000000E+000	3.6839077E-001	4.1690697E+001
0.0000000E+000	0.0000000E+000	0.0000000E+000	3.000000000000000E+000	3.6840233E-001	4.1657192E+001
5.0001852E+004	2.1376746E+000	-5.3577390E-002	3.000000000000000E+000	3.6836842E-001	4.1393410E+001
3.9461480E+004	2.1387761E+000	-2.6308296E-002	3.000000000000000E+000	3.6836684E-001	4.1240044E+001
3.1147934E+004	2.1412628E+000	7.4975414E-004	3.000000000000000E+000	3.6835882E-001	4.1021431E+001
2.4588033E+004	2.1458466E+000	2.5189238E-002	3.000000000000000E+000	3.6836720E-001	4.0829601E+001
1.9410633E+004	2.1471546E+000	5.3071894E-002	3.000000000000000E+000	3.6836448E-001	4.0701958E+001
1.5318811E+004	2.1542344E+000	8.1251264E-002	3.000000000000000E+000	3.6836416E-001	4.0591320E+001
1.2089894E+004	2.1630545E+000	1.1090606E-001	3.000000000000000E+000	3.6836061E-001	4.0474350E+001
9.5475840E+003	2.1758277E+000	1.4651772E-001	3.000000000000000E+000	3.6833960E-001	4.0310310E+001
7.5337441E+003	2.1891522E+000	1.8468082E-001	3.000000000000000E+000	3.6834002E-001	4.0195873E+001
5.9476943E+003	2.2118306E+000	2.3128629E-001	3.000000000000000E+000	3.6834535E-001	4.0064968E+001
4.6935005E+003	2.2376664E+000	2.8122729E-001	3.000000000000000E+000	3.6834708E-001	3.9920357E+001
3.7038176E+003	2.2737575E+000	3.3615857E-001	3.000000000000000E+000	3.6834446E-001	3.9783607E+001
2.9240623E+003	2.3200791E+000	4.0513358E-001	3.000000000000000E+000	3.6834198E-001	3.9651882E+001
2.3077876E+003	2.3831227E+000	4.7878665E-001	3.000000000000000E+000	3.6834535E-001	3.9530437E+001
