freq/Hz	Re(Z)/Ohm	-Im(Z)/Ohm	cycle number	<Ewe>/V	<I>/mA	
0.0000000E+000	0.0000000E+000	0.0000000E+000	1.000000000000000E+000	4.9987441E-001	1.1929005E+002
0.0000000E+000	0.0000000E+000	0.0000000E+000	1.000000000000000E+000	4.9987620E-001	1.1885122E+002
0.0000000E+000	0.0000000E+000	0.0000000E+000	1.000000000000000E+000	4.9987528E-001	1.1835777E+002
0.0000000E+000	0.0000000E+000	0.0000000E+000	1.000000000000000E+000	4.9987489E-001	1.1788542E+002
0.0000000E+000	0.0000000E+000	0.0000000E+000	1.000000000000000E+000	4.9988207E-001	1.1743387E+002
0.0000000E+000	0.0000000E+000	0.0000000E+000	1.000000000000000E+000	4.9988118E-001	1.1701252E+002
0.0000000E+000	0.0000000E+000	0.0000000E+000	1.000000000000000E+000	4.9988276E-001	1.1660143E+002
0.0000000E+000	0.0000000E+000	0.0000000E+000	1.000000000000000E+000	4.9987838E-001	1.1619952E+002
0.0000000E+000	0.0000000E+000	0.0000000E+000	1.000000000000000E+000	4.9988079E-001	1.1581609E+002
0.0000000E+000	0.0000000E+000	0.0000000E+000	1.000000000000000E+000	4.9987873E-001	1.1545339E+002
0.0000000E+000	0.0000000E+000	0.0000000E+000	1.000000000000000E+000	4.9987534E-001	1.1509498E+002
0.0000000E+000	0.0000000E+000	0.0000000E+000	1.000000000000000E+000	4.9988341E-001	1.1475614E+002
0.0000000E+000	0.0000000E+000	0.0000000E+000	1.000000000000000E+000	4.9988246E-001	1.1442387E+002
0.0000000E+000	0.0000000E+000	0.0000000E+000	1.000000000000000E+000	4.9988481E-001	1.1408755E+002
0.0000000E+000	0.0000000E+000	0.0000000E+000	1.000000000000000E+000	4.9987999E-001	1.1377827E+002
0.0000000E+000	0.0000000E+000	0.0000000E+000	1.000000000000000E+000	4.9989244E-001	1.1347722E+002
0.0000000E+000	0.0000000E+000	0.0000000E+000	1.000000000000000E+000	4.9989790E-001	1.1316858E+002
0.0000000E+000	0.0000000E+000	0.0000000E+000	1.000000000000000E+000	4.9988887E-001	1.1286653E+002
0.0000000E+000	0.0000000E+000	0.0000000E+000	1.000000000000000E+000	4.9988925E-001	1.1258826E+002
0.0000000E+000	0.0000000E+000	0.0000000E+000	1.000000000000000E+000	4.9987379E-001	1.1230807E+002
0.0000000E+000	0.0000000E+000	0.0000000E+000	1.000000000000000E+000	4.9989352E-001	1.1202797E+002
0.0000000E+000	0.0000000E+000	0.0000000E+000	1.000000000000000E+000	4.9987498E-001	1.1176194E+002
0.0000000E+000	0.0000000E+000	0.0000000E+000	1.000000000000000E+000	4.9986681E-001	1.1150554E+002
0.0000000E+000	0.0000000E+000	0.0000000E+000	1.000000000000000E+000	4.9987307E-001	1.1123819E+002
0.0000000E+000	0.0000000E+000	0.0000000E+000	1.000000000000000E+000	4.9988422E-001	1.1098400E+002
0.0000000E+000	0.0000000E+000	0.0000000E+000	1.000000000000000E+000	4.9987942E-001	1.1073814E+002
0.0000000E+000	0.0000000E+000	0.0000000E+000	1.000000000000000E+000	4.9986681E-001	1.1049258E+002
0.0000000E+000	0.0000000E+000	0.0000000E+000	1.000000000000000E+000	4.9987343E-001	1.1025668E+002
0.0000000E+000	0.0000000E+000	0.0000000E+000	1.000000000000000E+000	4.9988255E-001	1.1002724E+002
0.0000000E+000	0.0000000E+000	0.0000000E+000	1.000000000000000E+000	4.9988815E-001	1.0980719E+002
0.0000000E+000	0.0000000E+000	0.0000000E+000	1.000000000000000E+000	4.9987641E-001	1.0957000E+002
0.0000000E+000	0.0000000E+000	0.0000000E+000	1.000000000000000E+000	4.9987283E-001	1.0934511E+002
0.0000000E+000	0.0000000E+000	0.0000000E+000	1.000000000000000E+000	4.9989608E-001	1.0913286E+002
0.0000000E+000	0.0000000E+000	0.0000000E+000	1.000000000000000E+000	4.9987975E-001	1.0890967E+002
0.0000000E+000	0.0000000E+000	0.0000000E+000	1.000000000000000E+000	4.9987867E-001	1.0869560E+002
5.0001852E+004	1.8344710E+000	-3.9571732E-002	1.000000000000000E+000	4.9988589E-001	1.0703748E+002
3.9461480E+004	1.8368083E+000	-1.4412232E-002	1.000000000000000E+000	4.9989262E-001	1.0603873E+002
3.1147934E+004	1.8421777E+000	1.2076191E-002	1.000000000000000E+000	4.9989909E-001	1.0466659E+002
2.4588033E+004	1.8471650E+000	3.3988260E-002	1.000000000000000E+000	4.9988121E-001	1.0340110E+002
1.9410633E+004	1.8547428E+000	5.9631832E-002	1.000000000000000E+000	4.9989113E-001	1.0261233E+002
1.5318811E+004	1.8657653E+000	8.7037995E-002	1.000000000000000E+000	4.9988642E-001	1.0150590E+002
1.2089894E+004	1.8774998E+000	1.1267434E-001	1.000000000000000E+000	4.9988595E-001	1.0079854E+002
9.5475840E+003	1.8930725E+000	1.4285152E-001	1.000000000000000E+000	4.9985492E-001	9.9800354E+001
7.5337441E+003	1.9150391E+000	1.7451108E-001	1.000000000000000E+000	4.9986658E-001	9.9081856E+001
5.9476943E+003	1.9453624E+000	2.0542127E-001	1.000000000000000E+000	4.9987641E-001	9.8252625E+001
4.6935005E+003	1.9831694E+000	2.3813042E-001	1.000000000000000E+000	4.9988157E-001	9.7362183E+001
3.7038176E+003	2.0323360E+000	2.6998281E-001	1.000000000000000E+000	4.9988383E-001	9.6497787E+001
2.9240623E+003	2.0861750E+000	2.9785180E-001	1.000000000000000E+000	4.9988976E-001	9.5683350E+001
2.3077876E+003	2.1512153E+000	3.1670356E-001	1.000000000000000E+000	4.9989116E-001	9.4910576E+001
1.8217489E+003	2.2216063E+000	3.2820600E-001	1.000000000000000E+000	4.9989858E-001	9.4191032E+001
1.4377013E+003	2.2937706E+000	3.2594225E-001	1.000000000000000E+000	4.9989033E-001	9.3503181E+001
1.1346340E+003	2.3624959E+000	3.1471530E-001	1.000000000000000E+000	4.9989414E-001	9.2850578E+001
8.9585779E+002	2.4275079E+000	2.9130214E-001	1.000000000000000E+000	4.9989969E-001	9.2236710E+001
7.0703772E+002	2.4853680E+000	2.6603532E-001	1.000000000000000E+000	4.9988890E-001	9.1654610E+001
5.5803583E+002	2.5319045E+000	2.3448642E-001	1.000000000000000E+000	4.9989584E-001	9.1095955E+001
4.4042245E+002	2.5661356E+000	1.9982331E-001	1.000000000000000E+000	4.9989170E-001	9.0568306E+001
3.4766345E+002	2.5950313E+000	1.6676950E-001	1.000000000000000E+000	4.9989107E-001	9.0057961E+001
2.7438550E+002	2.6208532E+000	1.4235823E-001	1.000000000000000E+000	4.9989122E-001	8.9572250E+001
2.1659435E+002	2.6353137E+000	1.2004112E-001	1.000000000000000E+000	4.9989641E-001	8.9128166E+001
1.7103999E+002	2.6484756E+000	9.8896615E-002	1.000000000000000E+000	4.9989888E-001	8.8691254E+001
1.3495683E+002	2.6594110E+000	8.5091457E-002	1.000000000000000E+000	4.9990550E-001	8.8283348E+001
1.0653436E+002	2.6666567E+000	6.9537990E-002	1.000000000000000E+000	4.9990246E-001	8.7886971E+001
8.4111839E+001	2.6799276E+000	5.9735574E-002	1.000000000000000E+000	4.9990451E-001	8.7501175E+001
6.6380722E+001	2.6841214E+000	4.9897298E-002	1.000000000000000E+000	4.9990842E-001	8.7142883E+001
5.2397697E+001	2.6938736E+000	4.1477364E-002	1.000000000000000E+000	4.9990490E-001	8.6805939E+001
4.1363316E+001	2.6983755E+000	3.3376675E-002	1.000000000000000E+000	4.9991113E-001	8.6484474E+001
3.2649265E+001	2.7040164E+000	2.9318409E-002	1.000000000000000E+000	4.9989814E-001	8.6143173E+001
2.5766790E+001	2.7132125E+000	2.8392773E-002	1.000000000000000E+000	4.9990651E-001	8.5847260E+001
2.0331816E+001	2.7160041E+000	1.7649829E-002	1.000000000000000E+000	4.9991855E-001	8.5555954E+001
1.6053095E+001	2.7213321E+000	1.0266728E-002	1.000000000000000E+000	4.9990314E-001	8.5281715E+001
1.2668893E+001	2.7200232E+000	5.1155305E-003	1.000000000000000E+000	4.9989346E-001	8.4984276E+001
9.9968166E+000	2.7182951E+000	1.9555310E-002	1.000000000000000E+000	4.9990928E-001	8.4719810E+001
0.0000000E+000	0.0000000E+000	0.0000000E+000	2.000000000000000E+000	5.1792353E-001	9.1229919E+001
0.0000000E+000	0.0000000E+000	0.0000000E+000	2.000000000000000E+000	5.1792359E-001	9.1113579E+001
0.0000000E+000	0.0000000E+000	0.0000000E+000	2.000000000000000E+000	5.1792777E-001	9.0975510E+001
0.0000000E+000	0.0000000E+000	0.0000000E+000	2.000000000000000E+000	5.1792949E-001	9.0846802E+001
0.0000000E+000	0.0000000E+000	0.0000000E+000	2.000000000000000E+000	5.1791894E-001	9.0744156E+001
0.0000000E+000	0.0000000E+000	0.0000000E+000	2.000000000000000E+000	5.1791131E-001	9.0638542E+001
0.0000000E+000	0.0000000E+000	0.0000000E+000	2.000000000000000E+000	5.1792771E-001	9.0550163E+001
0.0000000E+000	0.0000000E+000	0.0000000E+000	2.000000000000000E+000	5.1792336E-001	9.0467003E+001
0.0000000E+000	0.0000000E+000	0.0000000E+000	2.000000000000000E+000	5.1792246E-001	9.0381088E+001
0.0000000E+000	0.0000000E+000	0.0000000E+000	2.000000000000000E+000	5.1791894E-001	9.0301567E+001
0.0000000E+000	0.0000000E+000	0.0000000E+000	2.000000000000000E+000	5.1792538E-001	9.0229797E+001
0.0000000E+000	0.0000000E+000	0.0000000E+000	2.000000000000000E+000	5.1791930E-001	9.0159821E+001
0.0000000E+000	0.0000000E+000	0.0000000E+000	2.000000000000000E+000	5.1793301E-001	9.0081642E+001
0.0000000E+000	0.0000000E+000	0.0000000E+000	2.000000000000000E+000	5.1792550E-001	9.0016899E+001
0.0000000E+000	0.0000000E+000	0.0000000E+000	2.000000000000000E+000	5.1793271E-001	8.9958382E+001
0.0000000E+000	0.0000000E+000	0.0000000E+000	2.000000000000000E+000	5.1793385E-001	8.9892616E+001
0.0000000E+000	0.0000000E+000	0.0000000E+000	2.000000000000000E+000	5.1791924E-001	8.9833076E+001
0.0000000E+000	0.0000000E+000	0.0000000E+000	2.000000000000000E+000	5.1792419E-001	8.9769829E+001
0.0000000E+000	0.0000000E+000	0.0000000E+000	2.000000000000000E+000	5.1792443E-001	8.9706985E+001
0.0000000E+000	0.0000000E+000	0.0000000E+000	2.000000000000000E+000	5.1792592E-001	8.9649132E+001
0.0000000E+000	0.0000000E+000	0.0000000E+000	2.000000000000000E+000	5.1792377E-001	8.9595840E+001
0.0000000E+000	0.0000000E+000	0.0000000E+000	2.000000000000000E+000	5.1792568E-001	8.9541786E+001
0.0000000E+000	0.0000000E+000	0.0000000E+000	2.000000000000000E+000	5.1792496E-001	8.9484344E+001
0.0000000E+000	0.0000000E+000	0.0000000E+000	2.000000000000000E+000	5.1792717E-001	8.9432518E+001
0.0000000E+000	0.0000000E+000	0.0000000E+000	2.000000000000000E+000	5.1791912E-001	8.9384926E+001
0.0000000E+000	0.0000000E+000	0.0000000E+000	2.000000000000000E+000	5.1792520E-001	8.9332268E+001
0.0000000E+000	0.0000000E+000	0.0000000E+000	2.000000000000000E+000	5.1793939E-001	8.9284317E+001
0.0000000E+000	0.0000000E+000	0.0000000E+000	2.000000000000000E+000	5.1792508E-001	8.9240990E+001
0.0000000E+000	0.0000000E+000	0.0000000E+000	2.000000000000000E+000	5.1792330E-001	8.9183517E+001
0.0000000E+000	0.0000000E+000	0.0000000E+000	2.000000000000000E+000	5.1791251E-001	8.9129395E+001
0.0000000E+000	0.0000000E+000	0.0000000E+000	2.000000000000000E+000	5.1792192E-001	8.9088898E+001
0.0000000E+000	0.0000000E+000	0.0000000E+000	2.000000000000000E+000	5.1791626E-001	8.9045563E+001
0.0000000E+000	0.0000000E+000	0.0000000E+000	2.000000000000000E+000	5.1791972E-001	8.8998940E+001
0.0000000E+000	0.0000000E+000	0.0000000E+000	2.000000000000000E+000	5.1792586E-001	8.8955566E+001
0.0000000E+000	0.0000000E+000	0.0000000E+000	2.000000000000000E+000	5.1792103E-001	8.8911415E+001
0.0000000E+000	0.0000000E+000	0.0000000E+000	2.000000000000000E+000	5.1791775E-001	8.8862968E+001
0.0000000E+000	0.0000000E+000	0.0000000E+000	2.000000000000000E+000	5.1791310E-001	8.8825417E+001
0.0000000E+000	0.0000000E+000	0.0000000E+000	2.000000000000000E+000	5.1792103E-001	8.8782097E+001
0.0000000E+000	0.0000000E+000	0.0000000E+000	2.000000000000000E+000	5.1791918E-001	8.8736176E+001
5.0001852E+004	1.8313915E+000	-3.2887969E-002	2.000000000000000E+000	5.1790571E-001	8.8393097E+001
3.9461480E+004	1.8334779E+000	-3.9778985E-003	2.000000000000000E+000	5.1791394E-001	8.8186958E+001
3.1147934E+004	1.8397065E+000	2.1995815E-002	2.000000000000000E+000	5.1791930E-001	8.7907845E+001
2.4588033E+004	1.8467122E+000	4.7124416E-002	2.000000000000000E+000	5.1791942E-001	8.7634628E+001
1.9410633E+004	1.8567992E+000	7.4152693E-002	2.000000000000000E+000	5.1792312E-001	8.7467606E+001
1.5318811E+004	1.8671846E+000	1.0362529E-001	2.000000000000000E+000	5.1791960E-001	8.7217979E+001
1.2089894E+004	1.8802531E+000	1.3270982E-001	2.000000000000000E+000	5.1791328E-001	8.7060387E+001
9.5475840E+003	1.9021934E+000	1.6461946E-001	2.000000000000000E+000	5.1788914E-001	8.6825554E+001
7.5337441E+003	1.9281576E+000	2.0064318E-001	2.000000000000000E+000	5.1789153E-001	8.6664383E+001
5.9476943E+003	1.9591813E+000	2.3672350E-001	2.000000000000000E+000	5.1790160E-001	8.6478027E+001
4.6935005E+003	2.0041342E+000	2.7478263E-001	2.000000000000000E+000	5.1790249E-001	8.6263290E+001
3.7038176E+003	2.0568233E+000	3.1012461E-001	2.000000000000000E+000	5.1789927E-001	8.6057289E+001
2.9240623E+003	2.1174326E+000	3.3721694E-001	2.000000000000000E+000	5.1790637E-001	8.5854530E+001
2.3077876E+003	2.1869299E+000	3.6104497E-001	2.000000000000000E+000	5.1790375E-001	8.5667984E+001
1.8217489E+003	2.2641740E+000	3.7343228E-001	2.000000000000000E+000	5.1790035E-001	8.5483253E+001
1.4377013E+003	2.3426497E+000	3.7254459E-001	2.000000000000000E+000	5.1789355E-001	8.5309471E+001
1.1346340E+003	2.4234424E+000	3.5773358E-001	2.000000000000000E+000	5.1789325E-001	8.5142845E+001
8.9585779E+002	2.4922490E+000	3.3557606E-001	2.000000000000000E+000	5.1789725E-001	8.4978806E+001
7.0703772E+002	2.5557675E+000	3.0213943E-001	2.000000000000000E+000	5.1789618E-001	8.4815964E+001
5.5803583E+002	2.6038783E+000	2.6157835E-001	2.000000000000000E+000	5.1789492E-001	8.4668549E+001
4.4042245E+002	2.6418114E+000	2.2799431E-001	2.000000000000000E+000	5.1791120E-001	8.4519096E+001
3.4766345E+002	2.6707592E+000	1.9455104E-001	2.000000000000000E+000	5.1790786E-001	8.4371025E+001
2.7438550E+002	2.6932869E+000	1.6262262E-001	2.000000000000000E+000	5.1789856E-001	8.4231438E+001
2.1659435E+002	2.7100930E+000	1.4069416E-001	2.000000000000000E+000	5.1789618E-001	8.4095337E+001
1.7103999E+002	2.7168310E+000	1.2086829E-001	2.000000000000000E+000	5.1790792E-001	8.3963821E+001
1.3495683E+002	2.7268720E+000	1.0333716E-001	2.000000000000000E+000	5.1789588E-001	8.3836288E+001
1.0653436E+002	2.7375188E+000	8.9130975E-002	2.000000000000000E+000	5.1791745E-001	8.3713432E+001
8.4111839E+001	2.7480361E+000	8.1371136E-002	2.000000000000000E+000	5.1790547E-001	8.3583923E+001
6.6380722E+001	2.7594261E+000	7.2630934E-002	2.000000000000000E+000	5.1790655E-001	8.3475098E+001
5.2397697E+001	2.7628109E+000	6.8374507E-002	2.000000000000000E+000	5.1791257E-001	8.3371033E+001
4.1363316E+001	2.7729545E+000	6.3802302E-002	2.000000000000000E+000	5.1791710E-001	8.3263504E+001
3.2649265E+001	2.7794161E+000	5.6569565E-002	2.000000000000000E+000	5.1791066E-001	8.3150070E+001
2.5766790E+001	2.7896771E+000	5.9154827E-002	2.000000000000000E+000	5.1790321E-001	8.3042152E+001
2.0331816E+001	2.7950408E+000	5.6129143E-002	2.000000000000000E+000	5.1789540E-001	8.2931252E+001
1.6053095E+001	2.8043590E+000	5.2386004E-002	2.000000000000000E+000	5.1789916E-001	8.2837196E+001
1.2668893E+001	2.8151879E+000	5.5204988E-002	2.000000000000000E+000	5.1789033E-001	8.2722168E+001
9.9968166E+000	2.8221037E+000	5.1423501E-002	2.000000000000000E+000	5.1789558E-001	8.2643074E+001
0.0000000E+000	0.0000000E+000	0.0000000E+000	3.000000000000000E+000	5.3557158E-001	8.8815742E+001
0.0000000E+000	0.0000000E+000	0.0000000E+000	3.000000000000000E+000	5.3556383E-001	8.8707901E+001
0.0000000E+000	0.0000000E+000	0.0000000E+000	3.000000000000000E+000	5.3558373E-001	8.8590591E+001
0.0000000E+000	0.0000000E+000	0.0000000E+000	3.000000000000000E+000	5.3557539E-001	8.8484802E+001
0.0000000E+000	0.0000000E+000	0.0000000E+000	3.000000000000000E+000	5.3556257E-001	8.8385849E+001
0.0000000E+000	0.0000000E+000	0.0000000E+000	3.000000000000000E+000	5.3556687E-001	8.8305832E+001
0.0000000E+000	0.0000000E+000	0.0000000E+000	3.000000000000000E+000	5.3557384E-001	8.8226784E+001
0.0000000E+000	0.0000000E+000	0.0000000E+000	3.000000000000000E+000	5.3557718E-001	8.8154358E+001
0.0000000E+000	0.0000000E+000	0.0000000E+000	3.000000000000000E+000	5.3557664E-001	8.8090240E+001
0.0000000E+000	0.0000000E+000	0.0000000E+000	3.000000000000000E+000	5.3557825E-001	8.8033035E+001
0.0000000E+000	0.0000000E+000	0.0000000E+000	3.000000000000000E+000	5.3557289E-001	8.7972870E+001
0.0000000E+000	0.0000000E+000	0.0000000E+000	3.000000000000000E+000	5.3557354E-001	8.7914642E+001
0.0000000E+000	0.0000000E+000	0.0000000E+000	3.000000000000000E+000	5.3556639E-001	8.7866516E+001
0.0000000E+000	0.0000000E+000	0.0000000E+000	3.000000000000000E+000	5.3557652E-001	8.7811707E+001
0.0000000E+000	0.0000000E+000	0.0000000E+000	3.000000000000000E+000	5.3557450E-001	8.7764877E+001
0.0000000E+000	0.0000000E+000	0.0000000E+000	3.000000000000000E+000	5.3557724E-001	8.7723259E+001
0.0000000E+000	0.0000000E+000	0.0000000E+000	3.000000000000000E+000	5.3555530E-001	8.7674324E+001
0.0000000E+000	0.0000000E+000	0.0000000E+000	3.000000000000000E+000	5.3557098E-001	8.7633415E+001
0.0000000E+000	0.0000000E+000	0.0000000E+000	3.000000000000000E+000	5.3556824E-001	8.7591354E+001
0.0000000E+000	0.0000000E+000	0.0000000E+000	3.000000000000000E+000	5.3556323E-001	8.7554047E+001
0.0000000E+000	0.0000000E+000	0.0000000E+000	3.000000000000000E+000	5.3557813E-001	8.7511147E+001
0.0000000E+000	0.0000000E+000	0.0000000E+000	3.000000000000000E+000	5.3557217E-001	8.7470871E+001
0.0000000E+000	0.0000000E+000	0.0000000E+000	3.000000000000000E+000	5.3557491E-001	8.7427399E+001
0.0000000E+000	0.0000000E+000	0.0000000E+000	3.000000000000000E+000	5.3556389E-001	8.7395317E+001
0.0000000E+000	0.0000000E+000	0.0000000E+000	3.000000000000000E+000	5.3557038E-001	8.7358406E+001
0.0000000E+000	0.0000000E+000	0.0000000E+000	3.000000000000000E+000	5.3556240E-001	8.7327774E+001
0.0000000E+000	0.0000000E+000	0.0000000E+000	3.000000000000000E+000	5.3557193E-001	8.7293007E+001
0.0000000E+000	0.0000000E+000	0.0000000E+000	3.000000000000000E+000	5.3557688E-001	8.7256989E+001
0.0000000E+000	0.0000000E+000	0.0000000E+000	3.000000000000000E+000	5.3556442E-001	8.7229156E+001
0.0000000E+000	0.0000000E+000	0.0000000E+000	3.000000000000000E+000	5.3557557E-001	8.7193703E+001
0.0000000E+000	0.0000000E+000	0.0000000E+000	3.000000000000000E+000	5.3557312E-001	8.7158401E+001
0.0000000E+000	0.0000000E+000	0.0000000E+000	3.000000000000000E+000	5.3556800E-001	8.7129257E+001
0.0000000E+000	0.0000000E+000	0.0000000E+000	3.000000000000000E+000	5.3556502E-001	8.7096954E+001
0.0000000E+000	0.0000000E+000	0.0000000E+000	3.000000000000000E+000	5.3557473E-001	8.7065353E+001
0.0000000E+000	0.0000000E+000	0.0000000E+000	3.000000000000000E+000	5.3556567E-001	8.7037109E+001
0.0000000E+000	0.0000000E+000	0.0000000E+000	3.000000000000000E+000	5.3555948E-001	8.7010124E+001
0.0000000E+000	0.0000000E+000	0.0000000E+000	3.000000000000000E+000	5.3557402E-001	8.6980179E+001
0.0000000E+000	0.0000000E+000	0.0000000E+000	3.000000000000000E+000	5.3556341E-001	8.6949661E+001
0.0000000E+000	0.0000000E+000	0.0000000E+000	3.000000000000000E+000	5.3556627E-001	8.6920753E+001
5.0001852E+004	1.8292339E+000	-2.8429862E-002	3.000000000000000E+000	5.3555870E-001	8.6723366E+001
3.9461480E+004	1.8333999E+000	5.3531112E-004	3.000000000000000E+000	5.3555632E-001	8.6594185E+001
3.1147934E+004	1.8383731E+000	2.8136324E-002	3.000000000000000E+000	5.3555405E-001	8.6419952E+001
2.4588033E+004	1.8457117E+000	5.4722536E-002	3.000000000000000E+000	5.3555048E-001	8.6252670E+001
1.9410633E+004	1.8555051E+000	8.1797868E-002	3.000000000000000E+000	5.3554904E-001	8.6151588E+001
1.5318811E+004	1.8673637E+000	1.0944235E-001	3.000000000000000E+000	5.3555316E-001	8.6005157E+001
1.2089894E+004	1.8833270E+000	1.4309454E-001	3.000000000000000E+000	5.3554386E-001	8.5911354E+001
9.5475840E+003	1.9050561E+000	1.7451683E-001	3.000000000000000E+000	5.3552347E-001	8.5775085E+001
7.5337441E+003	1.9319175E+000	2.1073428E-001	3.000000000000000E+000	5.3552598E-001	8.5680130E+001
5.9476943E+003	1.9698739E+000	2.4643621E-001	3.000000000000000E+000	5.3553671E-001	8.5567986E+001
4.6935005E+003	2.0142095E+000	2.8575408E-001	3.000000000000000E+000	5.3552455E-001	8.5445457E+001
3.7038176E+003	2.0677557E+000	3.1987691E-001	3.000000000000000E+000	5.3553098E-001	8.5325249E+001
2.9240623E+003	2.1323135E+000	3.5030243E-001	3.000000000000000E+000	5.3553796E-001	8.5216400E+001
2.3077876E+003	2.2032585E+000	3.7421012E-001	3.000000000000000E+000	5.3553659E-001	8.5103638E+001
1.8217489E+003	2.2853949E+000	3.8359198E-001	3.000000000000000E+000	5.3553879E-001	8.4997810E+001
1.4377013E+003	2.3661451E+000	3.8224605E-001	3.000000000000000E+000	5.3552514E-001	8.4893860E+001
