freq/Hz	Re(Z)/Ohm	-Im(Z)/Ohm	cycle number	<Ewe>/V	<I>/mA	
0.0000000E+000	0.0000000E+000	0.0000000E+000	1.000000000000000E+000	5.0002986E-001	8.0959953E+001
0.0000000E+000	0.0000000E+000	0.0000000E+000	1.000000000000000E+000	5.0002748E-001	8.0690041E+001
0.0000000E+000	0.0000000E+000	0.0000000E+000	1.000000000000000E+000	5.0002033E-001	8.0412285E+001
0.0000000E+000	0.0000000E+000	0.0000000E+000	1.000000000000000E+000	5.0002384E-001	8.0181633E+001
0.0000000E+000	0.0000000E+000	0.0000000E+000	1.000000000000000E+000	5.0002933E-001	7.9971222E+001
0.0000000E+000	0.0000000E+000	0.0000000E+000	1.000000000000000E+000	5.0002432E-001	7.9793571E+001
0.0000000E+000	0.0000000E+000	0.0000000E+000	1.000000000000000E+000	5.0002986E-001	7.9623215E+001
0.0000000E+000	0.0000000E+000	0.0000000E+000	1.000000000000000E+000	5.0003636E-001	7.9466713E+001
0.0000000E+000	0.0000000E+000	0.0000000E+000	1.000000000000000E+000	5.0003338E-001	7.9322418E+001
0.0000000E+000	0.0000000E+000	0.0000000E+000	1.000000000000000E+000	5.0002122E-001	7.9178658E+001
0.0000000E+000	0.0000000E+000	0.0000000E+000	1.000000000000000E+000	5.0003296E-001	7.9048820E+001
0.0000000E+000	0.0000000E+000	0.0000000E+000	1.000000000000000E+000	5.0003320E-001	7.8917381E+001
0.0000000E+000	0.0000000E+000	0.0000000E+000	1.000000000000000E+000	5.0003278E-001	7.8798515E+001
0.0000000E+000	0.0000000E+000	0.0000000E+000	1.000000000000000E+000	5.0002486E-001	7.8686836E+001
0.0000000E+000	0.0000000E+000	0.0000000E+000	1.000000000000000E+000	5.0002384E-001	7.8572670E+001
0.0000000E+000	0.0000000E+000	0.0000000E+000	1.000000000000000E+000	5.0003159E-001	7.8465401E+001
0.0000000E+000	0.0000000E+000	0.0000000E+000	1.000000000000000E+000	5.0003368E-001	7.8351181E+001
0.0000000E+000	0.0000000E+000	0.0000000E+000	1.000000000000000E+000	5.0001967E-001	7.8253792E+001
0.0000000E+000	0.0000000E+000	0.0000000E+000	1.000000000000000E+000	5.0002426E-001	7.8150719E+001
0.0000000E+000	0.0000000E+000	0.0000000E+000	1.000000000000000E+000	5.0003552E-001	7.8046432E+001
0.0000000E+000	0.0000000E+000	0.0000000E+000	1.000000000000000E+000	5.0002205E-001	7.7945572E+001
0.0000000E+000	0.0000000E+000	0.0000000E+000	1.000000000000000E+000	5.0001568E-001	7.7859467E+001
0.0000000E+000	0.0000000E+000	0.0000000E+000	1.000000000000000E+000	5.0003099E-001	7.7766876E+001
0.0000000E+000	0.0000000E+000	0.0000000E+000	1.000000000000000E+000	5.0003570E-001	7.7672714E+001
0.0000000E+000	0.0000000E+000	0.0000000E+000	1.000000000000000E+000	5.0002426E-001	7.7581291E+001
0.0000000E+000	0.0000000E+000	0.0000000E+000	1.000000000000000E+000	5.0002325E-001	7.7488899E+001
0.0000000E+000	0.0000000E+000	0.0000000E+000	1.000000000000000E+000	5.0003570E-001	7.7412361E+001
0.0000000E+000	0.0000000E+000	0.0000000E+000	1.000000000000000E+000	5.0002587E-001	7.7323334E+001
0.0000000E+000	0.0000000E+000	0.0000000E+000	1.000000000000000E+000	5.0002354E-001	7.7236656E+001
0.0000000E+000	0.0000000E+000	0.0000000E+000	1.000000000000000E+000	5.0001365E-001	7.7158241E+001
0.0000000E+000	0.0000000E+000	0.0000000E+000	1.000000000000000E+000	5.0003117E-001	7.7076233E+001
0.0000000E+000	0.0000000E+000	0.0000000E+000	1.000000000000000E+000	5.0002146E-001	7.6987854E+001
0.0000000E+000	0.0000000E+000	0.0000000E+000	1.000000000000000E+000	5.0002360E-001	7.6912041E+001
0.0000000E+000	0.0000000E+000	0.0000000E+000	1.000000000000000E+000	5.0002521E-001	7.6833595E+001
0.0000000E+000	0.0000000E+000	0.0000000E+000	1.000000000000000E+000	5.0003260E-001	7.6757782E+001
5.0001852E+004	2.8348410E+000	-5.4373078E-002	1.000000000000000E+000	5.0000560E-001	7.6140366E+001
3.9461480E+004	2.8360474E+000	-2.3725979E-002	1.000000000000000E+000	5.0000900E-001	7.5755180E+001
3.1147934E+004	2.8391702E+000	3.2375643E-003	1.000000000000000E+000	5.0001049E-001	7.5218079E+001
2.4588033E+004	2.8476281E+000	2.7134169E-002	1.000000000000000E+000	5.0001365E-001	7.4876480E+001
1.9410633E+004	2.8521569E+000	5.5089135E-002	1.000000000000000E+000	5.0000668E-001	7.4381813E+001
1.5318811E+004	2.8615665E+000	8.8493258E-002	1.000000000000000E+000	5.0001484E-001	7.4062569E+001
1.2089894E+004	2.8703058E+000	1.1284194E-001	1.000000000000000E+000	5.0001001E-001	7.3759338E+001
9.5475840E+003	2.8895843E+000	1.5200485E-001	1.000000000000000E+000	4.9999353E-001	7.3307785E+001
7.5337441E+003	2.9079854E+000	1.8566486E-001	1.000000000000000E+000	5.0000846E-001	7.2976395E+001
5.9476943E+003	2.9380345E+000	2.2502537E-001	1.000000000000000E+000	5.0002277E-001	7.2590759E+001
4.6935005E+003	2.9730206E+000	2.7093089E-001	1.000000000000000E+000	5.0000995E-001	7.2162216E+001
3.7038176E+003	3.0186613E+000	3.1816250E-001	1.000000000000000E+000	5.0001955E-001	7.1736130E+001
2.9240623E+003	3.0785012E+000	3.6031193E-001	1.000000000000000E+000	5.0001329E-001	7.1319984E+001
2.3077876E+003	3.1508267E+000	4.0858427E-001	1.000000000000000E+000	5.0001526E-001	7.0919395E+001
1.8217489E+003	3.2385225E+000	4.4187501E-001	1.000000000000000E+000	5.0002146E-001	7.0531975E+001
1.4377013E+003	3.3332748E+000	4.6442899E-001	1.000000000000000E+000	5.0001687E-001	7.0155457E+001
1.1346340E+003	3.4336607E+000	4.7081387E-001	1.000000000000000E+000	5.0002408E-001	6.9788528E+001
8.9585779E+002	3.5363915E+000	4.5682952E-001	1.000000000000000E+000	5.0000834E-001	6.9429710E+001
7.0703772E+002	3.6325505E+000	4.3424058E-001	1.000000000000000E+000	5.0000739E-001	6.9081390E+001
5.5803583E+002	3.7248228E+000	3.9535883E-001	1.000000000000000E+000	5.0001246E-001	6.8743492E+001
4.4042245E+002	3.7952461E+000	3.5059258E-001	1.000000000000000E+000	5.0000739E-001	6.8418304E+001
3.4766345E+002	3.8568420E+000	3.0048433E-001	1.000000000000000E+000	5.0000989E-001	6.8094460E+001
2.7438550E+002	3.9056892E+000	2.4789378E-001	1.000000000000000E+000	5.0001258E-001	6.7774963E+001
2.1659435E+002	3.9433186E+000	2.0369646E-001	1.000000000000000E+000	5.0000465E-001	6.7467712E+001
1.7103999E+002	3.9604418E+000	1.5770340E-001	1.000000000000000E+000	5.0000459E-001	6.7165657E+001
1.3495683E+002	3.9791811E+000	1.2696531E-001	1.000000000000000E+000	5.0001049E-001	6.6866486E+001
1.0653436E+002	3.9948957E+000	9.8858163E-002	1.000000000000000E+000	5.0001520E-001	6.6582138E+001
8.4111839E+001	3.9994061E+000	7.0371084E-002	1.000000000000000E+000	5.0000471E-001	6.6292900E+001
6.6380722E+001	4.0160041E+000	4.7831692E-002	1.000000000000000E+000	4.9999359E-001	6.6016861E+001
5.2397697E+001	4.0124221E+000	3.2684013E-002	1.000000000000000E+000	5.0000322E-001	6.5755318E+001
4.1363316E+001	4.0257258E+000	1.7428597E-002	1.000000000000000E+000	5.0001007E-001	6.5501709E+001
3.2649265E+001	4.0179586E+000	1.2841756E-003	1.000000000000000E+000	5.0000197E-001	6.5227463E+001
2.5766790E+001	4.0243659E+000	-1.0469211E-002	1.000000000000000E+000	4.9999663E-001	6.4974686E+001
2.0331816E+001	4.0223384E+000	-1.7319355E-002	1.000000000000000E+000	5.0000113E-001	6.4724220E+001
1.6053095E+001	4.0174131E+000	-1.6199464E-002	1.000000000000000E+000	4.9999732E-001	6.4490524E+001
1.2668893E+001	4.0256124E+000	-2.3925342E-002	1.000000000000000E+000	4.9998730E-001	6.4226189E+001
9.9968166E+000	3.9981396E+000	-2.4750987E-002	1.000000000000000E+000	5.0000548E-001	6.3985256E+001
0.0000000E+000	0.0000000E+000	0.0000000E+000	2.000000000000000E+000	5.1802415E-001	6.8443390E+001
0.0000000E+000	0.0000000E+000	0.0000000E+000	2.000000000000000E+000	5.1803428E-001	6.8411629E+001
0.0000000E+000	0.0000000E+000	0.0000000E+000	2.000000000000000E+000	5.1803672E-001	6.8341766E+001
0.0000000E+000	0.0000000E+000	0.0000000E+000	2.000000000000000E+000	5.1802939E-001	6.8282379E+001
0.0000000E+000	0.0000000E+000	0.0000000E+000	2.000000000000000E+000	5.1802278E-001	6.8213409E+001
0.0000000E+000	0.0000000E+000	0.0000000E+000	2.000000000000000E+000	5.1802379E-001	6.8159981E+001
0.0000000E+000	0.0000000E+000	0.0000000E+000	2.000000000000000E+000	5.1802099E-001	6.8104317E+001
0.0000000E+000	0.0000000E+000	0.0000000E+000	2.000000000000000E+000	5.1802397E-001	6.8047485E+001
0.0000000E+000	0.0000000E+000	0.0000000E+000	2.000000000000000E+000	5.1802129E-001	6.7998886E+001
0.0000000E+000	0.0000000E+000	0.0000000E+000	2.000000000000000E+000	5.1803297E-001	6.7944962E+001
0.0000000E+000	0.0000000E+000	0.0000000E+000	2.000000000000000E+000	5.1802689E-001	6.7900620E+001
0.0000000E+000	0.0000000E+000	0.0000000E+000	2.000000000000000E+000	5.1802683E-001	6.7852089E+001
0.0000000E+000	0.0000000E+000	0.0000000E+000	2.000000000000000E+000	5.1802391E-001	6.7815742E+001
0.0000000E+000	0.0000000E+000	0.0000000E+000	2.000000000000000E+000	5.1802874E-001	6.7759819E+001
0.0000000E+000	0.0000000E+000	0.0000000E+000	2.000000000000000E+000	5.1804245E-001	6.7718208E+001
0.0000000E+000	0.0000000E+000	0.0000000E+000	2.000000000000000E+000	5.1803577E-001	6.7677025E+001
0.0000000E+000	0.0000000E+000	0.0000000E+000	2.000000000000000E+000	5.1802981E-001	6.7638474E+001
0.0000000E+000	0.0000000E+000	0.0000000E+000	2.000000000000000E+000	5.1802468E-001	6.7593529E+001
0.0000000E+000	0.0000000E+000	0.0000000E+000	2.000000000000000E+000	5.1803726E-001	6.7550430E+001
0.0000000E+000	0.0000000E+000	0.0000000E+000	2.000000000000000E+000	5.1802558E-001	6.7509575E+001
0.0000000E+000	0.0000000E+000	0.0000000E+000	2.000000000000000E+000	5.1802880E-001	6.7477180E+001
0.0000000E+000	0.0000000E+000	0.0000000E+000	2.000000000000000E+000	5.1803714E-001	6.7433891E+001
0.0000000E+000	0.0000000E+000	0.0000000E+000	2.000000000000000E+000	5.1802957E-001	6.7394981E+001
0.0000000E+000	0.0000000E+000	0.0000000E+000	2.000000000000000E+000	5.1802570E-001	6.7355263E+001
0.0000000E+000	0.0000000E+000	0.0000000E+000	2.000000000000000E+000	5.1802629E-001	6.7320313E+001
0.0000000E+000	0.0000000E+000	0.0000000E+000	2.000000000000000E+000	5.1804054E-001	6.7285614E+001
0.0000000E+000	0.0000000E+000	0.0000000E+000	2.000000000000000E+000	5.1804036E-001	6.7245033E+001
0.0000000E+000	0.0000000E+000	0.0000000E+000	2.000000000000000E+000	5.1802403E-001	6.7204277E+001
0.0000000E+000	0.0000000E+000	0.0000000E+000	2.000000000000000E+000	5.1802891E-001	6.7166153E+001
0.0000000E+000	0.0000000E+000	0.0000000E+000	2.000000000000000E+000	5.1804066E-001	6.7135567E+001
0.0000000E+000	0.0000000E+000	0.0000000E+000	2.000000000000000E+000	5.1803619E-001	6.7097282E+001
0.0000000E+000	0.0000000E+000	0.0000000E+000	2.000000000000000E+000	5.1802158E-001	6.7065193E+001
0.0000000E+000	0.0000000E+000	0.0000000E+000	2.000000000000000E+000	5.1803792E-001	6.7020355E+001
0.0000000E+000	0.0000000E+000	0.0000000E+000	2.000000000000000E+000	5.1803851E-001	6.6989906E+001
0.0000000E+000	0.0000000E+000	0.0000000E+000	2.000000000000000E+000	5.1803303E-001	6.6956490E+001
0.0000000E+000	0.0000000E+000	0.0000000E+000	2.000000000000000E+000	5.1802307E-001	6.6915085E+001
0.0000000E+000	0.0000000E+000	0.0000000E+000	2.000000000000000E+000	5.1803577E-001	6.6883965E+001
0.0000000E+000	0.0000000E+000	0.0000000E+000	2.000000000000000E+000	5.1803583E-001	6.6847519E+001
0.0000000E+000	0.0000000E+000	0.0000000E+000	2.000000000000000E+000	5.1803499E-001	6.6816200E+001
5.0001852E+004	2.8479016E+000	-5.0108880E-002	2.000000000000000E+000	5.1799726E-001	6.6542862E+001
3.9461480E+004	2.8485768E+000	-1.7561568E-002	2.000000000000000E+000	5.1799560E-001	6.6363037E+001
3.1147934E+004	2.8501918E+000	1.0581305E-002	2.000000000000000E+000	5.1799780E-001	6.6109955E+001
2.4588033E+004	2.8553054E+000	3.8394701E-002	2.000000000000000E+000	5.1799965E-001	6.5941986E+001
1.9410633E+004	2.8647072E+000	6.6665247E-002	2.000000000000000E+000	5.1799226E-001	6.5700256E+001
1.5318811E+004	2.8752611E+000	9.4383650E-002	2.000000000000000E+000	5.1800162E-001	6.5550133E+001
1.2089894E+004	2.8882475E+000	1.3419583E-001	2.000000000000000E+000	5.1800466E-001	6.5392197E+001
9.5475840E+003	2.9045818E+000	1.6995829E-001	2.000000000000000E+000	5.1798034E-001	6.5163612E+001
7.5337441E+003	2.9281983E+000	2.0863472E-001	2.000000000000000E+000	5.1799989E-001	6.4996590E+001
5.9476943E+003	2.9568357E+000	2.5643060E-001	2.000000000000000E+000	5.1799965E-001	6.4801804E+001
4.6935005E+003	2.9943476E+000	3.0249900E-001	2.000000000000000E+000	5.1799887E-001	6.4582230E+001
3.7038176E+003	3.0473208E+000	3.5714480E-001	2.000000000000000E+000	5.1799786E-001	6.4362076E+001
2.9240623E+003	3.1139860E+000	4.0964267E-001	2.000000000000000E+000	5.1799470E-001	6.4147072E+001
2.3077876E+003	3.1934736E+000	4.5939523E-001	2.000000000000000E+000	5.1799852E-001	6.3938751E+001
1.8217489E+003	3.2879462E+000	5.0455642E-001	2.000000000000000E+000	5.1799697E-001	6.3730827E+001
1.4377013E+003	3.3999798E+000	5.3243089E-001	2.000000000000000E+000	5.1798177E-001	6.3523781E+001
1.1346340E+003	3.5071664E+000	5.4254693E-001	2.000000000000000E+000	5.1798517E-001	6.3334114E+001
8.9585779E+002	3.6169326E+000	5.3208619E-001	2.000000000000000E+000	5.1798630E-001	6.3140175E+001
7.0703772E+002	3.7178817E+000	4.9743822E-001	2.000000000000000E+000	5.1798534E-001	6.2961479E+001
5.5803583E+002	3.8147416E+000	4.5607409E-001	2.000000000000000E+000	5.1798171E-001	6.2773026E+001
4.4042245E+002	3.8970122E+000	4.0528110E-001	2.000000000000000E+000	5.1798546E-001	6.2591251E+001
3.4766345E+002	3.9574535E+000	3.5014257E-001	2.000000000000000E+000	5.1799077E-001	6.2422165E+001
2.7438550E+002	4.0131454E+000	2.9746708E-001	2.000000000000000E+000	5.1798207E-001	6.2246243E+001
2.1659435E+002	4.0471487E+000	2.5331560E-001	2.000000000000000E+000	5.1798010E-001	6.2078793E+001
1.7103999E+002	4.0740428E+000	2.0776170E-001	2.000000000000000E+000	5.1797962E-001	6.1914066E+001
1.3495683E+002	4.1048460E+000	1.7690681E-001	2.000000000000000E+000	5.1798201E-001	6.1749954E+001
1.0653436E+002	4.1119866E+000	1.4708745E-001	2.000000000000000E+000	5.1798439E-001	6.1595566E+001
8.4111839E+001	4.1292300E+000	1.2353327E-001	2.000000000000000E+000	5.1797879E-001	6.1441975E+001
6.6380722E+001	4.1422110E+000	1.0686006E-001	2.000000000000000E+000	5.1798069E-001	6.1292538E+001
5.2397697E+001	4.1509128E+000	9.1326490E-002	2.000000000000000E+000	5.1797915E-001	6.1147163E+001
4.1363316E+001	4.1629548E+000	8.0162026E-002	2.000000000000000E+000	5.1798862E-001	6.1009739E+001
3.2649265E+001	4.1760459E+000	6.0322054E-002	2.000000000000000E+000	5.1798010E-001	6.0854885E+001
2.5766790E+001	4.1786599E+000	5.5353001E-002	2.000000000000000E+000	5.1798922E-001	6.0718060E+001
2.0331816E+001	4.1858325E+000	5.0216939E-002	2.000000000000000E+000	5.1798391E-001	6.0587414E+001
1.6053095E+001	4.2036829E+000	4.4384282E-002	2.000000000000000E+000	5.1799065E-001	6.0462360E+001
1.2668893E+001	4.2046618E+000	3.1405911E-002	2.000000000000000E+000	5.1796544E-001	6.0312851E+001
9.9968166E+000	4.2034268E+000	5.1597979E-002	2.000000000000000E+000	5.1797318E-001	6.0187424E+001
0.0000000E+000	0.0000000E+000	0.0000000E+000	3.000000000000000E+000	5.3598148E-001	6.4413330E+001
0.0000000E+000	0.0000000E+000	0.0000000E+000	3.000000000000000E+000	5.3598928E-001	6.4360413E+001
0.0000000E+000	0.0000000E+000	0.0000000E+000	3.000000000000000E+000	5.3598630E-001	6.4284172E+001
0.0000000E+000	0.0000000E+000	0.0000000E+000	3.000000000000000E+000	5.3597510E-001	6.4215721E+001
0.0000000E+000	0.0000000E+000	0.0000000E+000	3.000000000000000E+000	5.3597677E-001	6.4156425E+001
0.0000000E+000	0.0000000E+000	0.0000000E+000	3.000000000000000E+000	5.3597915E-001	6.4098206E+001
0.0000000E+000	0.0000000E+000	0.0000000E+000	3.000000000000000E+000	5.3598881E-001	6.4050392E+001
0.0000000E+000	0.0000000E+000	0.0000000E+000	3.000000000000000E+000	5.3597248E-001	6.3999470E+001
0.0000000E+000	0.0000000E+000	0.0000000E+000	3.000000000000000E+000	5.3598458E-001	6.3950253E+001
0.0000000E+000	0.0000000E+000	0.0000000E+000	3.000000000000000E+000	5.3598475E-001	6.3903042E+001
0.0000000E+000	0.0000000E+000	0.0000000E+000	3.000000000000000E+000	5.3597993E-001	6.3857269E+001
0.0000000E+000	0.0000000E+000	0.0000000E+000	3.000000000000000E+000	5.3596938E-001	6.3822865E+001
0.0000000E+000	0.0000000E+000	0.0000000E+000	3.000000000000000E+000	5.3597397E-001	6.3781876E+001
0.0000000E+000	0.0000000E+000	0.0000000E+000	3.000000000000000E+000	5.3598535E-001	6.3742558E+001
0.0000000E+000	0.0000000E+000	0.0000000E+000	3.000000000000000E+000	5.3597522E-001	6.3703831E+001
0.0000000E+000	0.0000000E+000	0.0000000E+000	3.000000000000000E+000	5.3597528E-001	6.3672523E+001
0.0000000E+000	0.0000000E+000	0.0000000E+000	3.000000000000000E+000	5.3597915E-001	6.3647034E+001
0.0000000E+000	0.0000000E+000	0.0000000E+000	3.000000000000000E+000	5.3598028E-001	6.3603142E+001
0.0000000E+000	0.0000000E+000	0.0000000E+000	3.000000000000000E+000	5.3597164E-001	6.3573074E+001
0.0000000E+000	0.0000000E+000	0.0000000E+000	3.000000000000000E+000	5.3596896E-001	6.3539383E+001
0.0000000E+000	0.0000000E+000	0.0000000E+000	3.000000000000000E+000	5.3597879E-001	6.3510456E+001
0.0000000E+000	0.0000000E+000	0.0000000E+000	3.000000000000000E+000	5.3598189E-001	6.3473267E+001
0.0000000E+000	0.0000000E+000	0.0000000E+000	3.000000000000000E+000	5.3597742E-001	6.3448402E+001
0.0000000E+000	0.0000000E+000	0.0000000E+000	3.000000000000000E+000	5.3598583E-001	6.3417137E+001
0.0000000E+000	0.0000000E+000	0.0000000E+000	3.000000000000000E+000	5.3598487E-001	6.3385841E+001
0.0000000E+000	0.0000000E+000	0.0000000E+000	3.000000000000000E+000	5.3598875E-001	6.3356491E+001
0.0000000E+000	0.0000000E+000	0.0000000E+000	3.000000000000000E+000	5.3597558E-001	6.3324657E+001
0.0000000E+000	0.0000000E+000	0.0000000E+000	3.000000000000000E+000	5.3597379E-001	6.3293068E+001
0.0000000E+000	0.0000000E+000	0.0000000E+000	3.000000000000000E+000	5.3598899E-001	6.3270329E+001
0.0000000E+000	0.0000000E+000	0.0000000E+000	3.000000000000000E+000	5.3598052E-001	6.3241383E+001
0.0000000E+000	0.0000000E+000	0.0000000E+000	3.000000000000000E+000	5.3597528E-001	6.3215431E+001
0.0000000E+000	0.0000000E+000	0.0000000E+000	3.000000000000000E+000	5.3598154E-001	6.3190357E+001
0.0000000E+000	0.0000000E+000	0.0000000E+000	3.000000000000000E+000	5.3598225E-001	6.3168125E+001
0.0000000E+000	0.0000000E+000	0.0000000E+000	3.000000000000000E+000	5.3597844E-001	6.3132645E+001
0.0000000E+000	0.0000000E+000	0.0000000E+000	3.000000000000000E+000	5.3596997E-001	6.3108143E+001
0.0000000E+000	0.0000000E+000	0.0000000E+000	3.000000000000000E+000	5.3597409E-001	6.3086662E+001
0.0000000E+000	0.0000000E+000	0.0000000E+000	3.000000000000000E+000	5.3598523E-001	6.3061081E+001
0.0000000E+000	0.0000000E+000	0.0000000E+000	3.000000000000000E+000	5.3597248E-001	6.3037685E+001
0.0000000E+000	0.0000000E+000	0.0000000E+000	3.000000000000000E+000	5.3596759E-001	6.3013088E+001
5.0001852E+004	2.8338370E+000	-4.4902053E-002	3.000000000000000E+000	5.3595769E-001	6.2829330E+001
3.9461480E+004	2.8394637E+000	-1.2393564E-002	3.000000000000000E+000	5.3595597E-001	6.2703735E+001
3.1147934E+004	2.8390300E+000	2.0480417E-002	3.000000000000000E+000	5.3595853E-001	6.2537197E+001
2.4588033E+004	2.8468940E+000	4.7560256E-002	3.000000000000000E+000	5.3594941E-001	6.2432297E+001
1.9410633E+004	2.8546586E+000	7.7509962E-002	3.000000000000000E+000	5.3594947E-001	6.2280273E+001
1.5318811E+004	2.8592100E+000	1.1199334E-001	3.000000000000000E+000	5.3594691E-001	6.2173527E+001
1.2089894E+004	2.8750648E+000	1.4609480E-001	3.000000000000000E+000	5.3594792E-001	6.2068401E+001
9.5475840E+003	2.8939064E+000	1.8449932E-001	3.000000000000000E+000	5.3592861E-001	6.1925278E+001
7.5337441E+003	2.9156506E+000	2.2875665E-001	3.000000000000000E+000	5.3594023E-001	6.1820435E+001
5.9476943E+003	2.9506128E+000	2.7638805E-001	3.000000000000000E+000	5.3595048E-001	6.1701267E+001
4.6935005E+003	2.9896533E+000	3.3007783E-001	3.000000000000000E+000	5.3595001E-001	6.1565781E+001
3.7038176E+003	3.0491421E+000	3.8523766E-001	3.000000000000000E+000	5.3595346E-001	6.1435028E+001
2.9240623E+003	3.1162958E+000	4.4074360E-001	3.000000000000000E+000	5.3595048E-001	6.1296375E+001
2.3077876E+003	3.2023947E+000	4.9331567E-001	3.000000000000000E+000	5.3595334E-001	6.1173668E+001
1.8217489E+003	3.2987034E+000	5.3899413E-001	3.000000000000000E+000	5.3595001E-001	6.1055408E+001
1.4377013E+003	3.4206588E+000	5.6678116E-001	3.000000000000000E+000	5.3595400E-001	6.0933186E+001
