freq/Hz	Re(Z)/Ohm	-Im(Z)/Ohm	cycle number	<Ewe>/V	<I>/mA	
0.0000000E+000	0.0000000E+000	0.0000000E+000	1.000000000000000E+000	4.9995005E-001	1.2328003E+002
0.0000000E+000	0.0000000E+000	0.0000000E+000	1.000000000000000E+000	4.9994415E-001	1.2284476E+002
0.0000000E+000	0.0000000E+000	0.0000000E+000	1.000000000000000E+000	4.9995330E-001	1.2236631E+002
0.0000000E+000	0.0000000E+000	0.0000000E+000	1.000000000000000E+000	4.9995771E-001	1.2191749E+002
0.0000000E+000	0.0000000E+000	0.0000000E+000	1.000000000000000E+000	4.9994397E-001	1.2150471E+002
0.0000000E+000	0.0000000E+000	0.0000000E+000	1.000000000000000E+000	4.9994695E-001	1.2111488E+002
0.0000000E+000	0.0000000E+000	0.0000000E+000	1.000000000000000E+000	4.9994472E-001	1.2072696E+002
0.0000000E+000	0.0000000E+000	0.0000000E+000	1.000000000000000E+000	4.9994883E-001	1.2037096E+002
0.0000000E+000	0.0000000E+000	0.0000000E+000	1.000000000000000E+000	4.9994552E-001	1.2001265E+002
0.0000000E+000	0.0000000E+000	0.0000000E+000	1.000000000000000E+000	4.9994943E-001	1.1967719E+002
0.0000000E+000	0.0000000E+000	0.0000000E+000	1.000000000000000E+000	4.9994093E-001	1.1934510E+002
0.0000000E+000	0.0000000E+000	0.0000000E+000	1.000000000000000E+000	4.9994296E-001	1.1903439E+002
0.0000000E+000	0.0000000E+000	0.0000000E+000	1.000000000000000E+000	4.9993587E-001	1.1872410E+002
0.0000000E+000	0.0000000E+000	0.0000000E+000	1.000000000000000E+000	4.9994698E-001	1.1842351E+002
0.0000000E+000	0.0000000E+000	0.0000000E+000	1.000000000000000E+000	4.9993649E-001	1.1813081E+002
0.0000000E+000	0.0000000E+000	0.0000000E+000	1.000000000000000E+000	4.9994835E-001	1.1784145E+002
0.0000000E+000	0.0000000E+000	0.0000000E+000	1.000000000000000E+000	4.9993700E-001	1.1755758E+002
0.0000000E+000	0.0000000E+000	0.0000000E+000	1.000000000000000E+000	4.9993938E-001	1.1728699E+002
0.0000000E+000	0.0000000E+000	0.0000000E+000	1.000000000000000E+000	4.9994519E-001	1.1701588E+002
0.0000000E+000	0.0000000E+000	0.0000000E+000	1.000000000000000E+000	4.9994650E-001	1.1675481E+002
0.0000000E+000	0.0000000E+000	0.0000000E+000	1.000000000000000E+000	4.9994618E-001	1.1649611E+002
0.0000000E+000	0.0000000E+000	0.0000000E+000	1.000000000000000E+000	4.9995109E-001	1.1624264E+002
0.0000000E+000	0.0000000E+000	0.0000000E+000	1.000000000000000E+000	4.9994326E-001	1.1599189E+002
0.0000000E+000	0.0000000E+000	0.0000000E+000	1.000000000000000E+000	4.9994767E-001	1.1574184E+002
0.0000000E+000	0.0000000E+000	0.0000000E+000	1.000000000000000E+000	4.9994743E-001	1.1550282E+002
0.0000000E+000	0.0000000E+000	0.0000000E+000	1.000000000000000E+000	4.9994525E-001	1.1526212E+002
0.0000000E+000	0.0000000E+000	0.0000000E+000	1.000000000000000E+000	4.9995044E-001	1.1503366E+002
0.0000000E+000	0.0000000E+000	0.0000000E+000	1.000000000000000E+000	4.9995381E-001	1.1480673E+002
0.0000000E+000	0.0000000E+000	0.0000000E+000	1.000000000000000E+000	4.9994940E-001	1.1458471E+002
0.0000000E+000	0.0000000E+000	0.0000000E+000	1.000000000000000E+000	4.9994692E-001	1.1436245E+002
0.0000000E+000	0.0000000E+000	0.0000000E+000	1.000000000000000E+000	4.9995133E-001	1.1413913E+002
0.0000000E+000	0.0000000E+000	0.0000000E+000	1.000000000000000E+000	4.9994260E-001	1.1391786E+002
0.0000000E+000	0.0000000E+000	0.0000000E+000	1.000000000000000E+000	4.9993354E-001	1.1370496E+002
0.0000000E+000	0.0000000E+000	0.0000000E+000	1.000000000000000E+000	4.9994412E-001	1.1349137E+002
0.0000000E+000	0.0000000E+000	0.0000000E+000	1.000000000000000E+000	4.9993518E-001	1.1328311E+002
5.0001852E+004	1.6630076E+000	-3.4471367E-002	1.000000000000000E+000	4.9993655E-001	1.1164677E+002
3.9461480E+004	1.6713111E+000	-7.1082665E-003	1.000000000000000E+000	4.9994403E-001	1.1017960E+002
3.1147934E+004	1.6770595E+000	1.9082025E-002	1.000000000000000E+000	4.9995276E-001	1.0882776E+002
2.4588033E+004	1.6845196E+000	4.4510420E-002	1.000000000000000E+000	4.9994627E-001	1.0755188E+002
1.9410633E+004	1.6929595E+000	7.1842603E-002	1.000000000000000E+000	4.9995199E-001	1.0674613E+002
1.5318811E+004	1.7058175E+000	9.8517016E-002	1.000000000000000E+000	4.9994302E-001	1.0559889E+002
1.2089894E+004	1.7210102E+000	1.2684669E-001	1.000000000000000E+000	4.9994117E-001	1.0486353E+002
9.5475840E+003	1.7418665E+000	1.5624370E-001	1.000000000000000E+000	4.9992278E-001	1.0381788E+002
7.5337441E+003	1.7667427E+000	1.8911164E-001	1.000000000000000E+000	4.9993116E-001	1.0304719E+002
5.9476943E+003	1.8025286E+000	2.2543773E-001	1.000000000000000E+000	4.9993998E-001	1.0216398E+002
4.6935005E+003	1.8423384E+000	2.5852585E-001	1.000000000000000E+000	4.9993768E-001	1.0119560E+002
3.7038176E+003	1.8929807E+000	2.9009745E-001	1.000000000000000E+000	4.9993360E-001	1.0024766E+002
2.9240623E+003	1.9472787E+000	3.1661475E-001	1.000000000000000E+000	4.9993381E-001	9.9352921E+001
2.3077876E+003	2.0149961E+000	3.3499420E-001	1.000000000000000E+000	4.9993485E-001	9.8491508E+001
1.8217489E+003	2.0870223E+000	3.5160390E-001	1.000000000000000E+000	4.9993080E-001	9.7673721E+001
1.4377013E+003	2.1608951E+000	3.5296628E-001	1.000000000000000E+000	4.9993384E-001	9.6889809E+001
1.1346340E+003	2.2337394E+000	3.4363073E-001	1.000000000000000E+000	4.9992743E-001	9.6159332E+001
8.9585779E+002	2.2996407E+000	3.2674477E-001	1.000000000000000E+000	4.9992967E-001	9.5456314E+001
7.0703772E+002	2.3596516E+000	3.0612940E-001	1.000000000000000E+000	4.9993429E-001	9.4775505E+001
5.5803583E+002	2.4199407E+000	2.7528763E-001	1.000000000000000E+000	4.9992266E-001	9.4134743E+001
4.4042245E+002	2.4636991E+000	2.4450818E-001	1.000000000000000E+000	4.9993119E-001	9.3520950E+001
3.4766345E+002	2.5043721E+000	2.1711111E-001	1.000000000000000E+000	4.9992728E-001	9.2926422E+001
2.7438550E+002	2.5375481E+000	1.8821049E-001	1.000000000000000E+000	4.9992010E-001	9.2363495E+001
2.1659435E+002	2.5632672E+000	1.5773293E-001	1.000000000000000E+000	4.9992639E-001	9.1830795E+001
1.7103999E+002	2.5865836E+000	1.3546185E-001	1.000000000000000E+000	4.9991938E-001	9.1314384E+001
1.3495683E+002	2.6028664E+000	1.1244082E-001	1.000000000000000E+000	4.9992204E-001	9.0821373E+001
1.0653436E+002	2.6206794E+000	9.5250040E-002	1.000000000000000E+000	4.9992567E-001	9.0354424E+001
8.4111839E+001	2.6297755E+000	7.9181790E-002	1.000000000000000E+000	4.9992201E-001	8.9900970E+001
6.6380722E+001	2.6416707E+000	6.5808795E-002	1.000000000000000E+000	4.9992016E-001	8.9475204E+001
5.2397697E+001	2.6514626E+000	5.7113085E-002	1.000000000000000E+000	4.9991804E-001	8.9074417E+001
4.1363316E+001	2.6615829E+000	4.9015250E-002	1.000000000000000E+000	4.9991971E-001	8.8680771E+001
3.2649265E+001	2.6672094E+000	4.2640753E-002	1.000000000000000E+000	4.9992475E-001	8.8282845E+001
2.5766790E+001	2.6769106E+000	3.3281717E-002	1.000000000000000E+000	4.9992767E-001	8.7915443E+001
2.0331816E+001	2.6845715E+000	3.2676745E-002	1.000000000000000E+000	4.9993315E-001	8.7569450E+001
1.6053095E+001	2.6893611E+000	3.2265946E-002	1.000000000000000E+000	4.9993393E-001	8.7243515E+001
1.2668893E+001	2.6991982E+000	2.7761960E-002	1.000000000000000E+000	4.9992585E-001	8.6872437E+001
9.9968166E+000	2.6871536E+000	3.3443760E-002	1.000000000000000E+000	4.9993515E-001	8.6565361E+001
0.0000000E+000	0.0000000E+000	0.0000000E+000	2.000000000000000E+000	5.1795417E-001	9.3108482E+001
0.0000000E+000	0.0000000E+000	0.0000000E+000	2.000000000000000E+000	5.1795095E-001	9.2980820E+001
0.0000000E+000	0.0000000E+000	0.0000000E+000	2.000000000000000E+000	5.1794618E-001	9.2820068E+001
0.0000000E+000	0.0000000E+000	0.0000000E+000	2.000000000000000E+000	5.1793635E-001	9.2674004E+001
0.0000000E+000	0.0000000E+000	0.0000000E+000	2.000000000000000E+000	5.1794708E-001	9.2552338E+001
0.0000000E+000	0.0000000E+000	0.0000000E+000	2.000000000000000E+000	5.1794738E-001	9.2437202E+001
0.0000000E+000	0.0000000E+000	0.0000000E+000	2.000000000000000E+000	5.1795495E-001	9.2330200E+001
0.0000000E+000	0.0000000E+000	0.0000000E+000	2.000000000000000E+000	5.1794362E-001	9.2227470E+001
0.0000000E+000	0.0000000E+000	0.0000000E+000	2.000000000000000E+000	5.1794767E-001	9.2135231E+001
0.0000000E+000	0.0000000E+000	0.0000000E+000	2.000000000000000E+000	5.1794243E-001	9.2048088E+001
0.0000000E+000	0.0000000E+000	0.0000000E+000	2.000000000000000E+000	5.1794189E-001	9.1960922E+001
0.0000000E+000	0.0000000E+000	0.0000000E+000	2.000000000000000E+000	5.1794213E-001	9.1874382E+001
0.0000000E+000	0.0000000E+000	0.0000000E+000	2.000000000000000E+000	5.1794147E-001	9.1792404E+001
0.0000000E+000	0.0000000E+000	0.0000000E+000	2.000000000000000E+000	5.1794797E-001	9.1715355E+001
0.0000000E+000	0.0000000E+000	0.0000000E+000	2.000000000000000E+000	5.1795399E-001	9.1644455E+001
0.0000000E+000	0.0000000E+000	0.0000000E+000	2.000000000000000E+000	5.1795286E-001	9.1566704E+001
0.0000000E+000	0.0000000E+000	0.0000000E+000	2.000000000000000E+000	5.1793802E-001	9.1495255E+001
0.0000000E+000	0.0000000E+000	0.0000000E+000	2.000000000000000E+000	5.1794034E-001	9.1431305E+001
0.0000000E+000	0.0000000E+000	0.0000000E+000	2.000000000000000E+000	5.1795596E-001	9.1363754E+001
0.0000000E+000	0.0000000E+000	0.0000000E+000	2.000000000000000E+000	5.1795310E-001	9.1305061E+001
0.0000000E+000	0.0000000E+000	0.0000000E+000	2.000000000000000E+000	5.1794845E-001	9.1237946E+001
0.0000000E+000	0.0000000E+000	0.0000000E+000	2.000000000000000E+000	5.1794577E-001	9.1173271E+001
0.0000000E+000	0.0000000E+000	0.0000000E+000	2.000000000000000E+000	5.1794869E-001	9.1117340E+001
0.0000000E+000	0.0000000E+000	0.0000000E+000	2.000000000000000E+000	5.1795262E-001	9.1048065E+001
0.0000000E+000	0.0000000E+000	0.0000000E+000	2.000000000000000E+000	5.1794356E-001	9.0990494E+001
0.0000000E+000	0.0000000E+000	0.0000000E+000	2.000000000000000E+000	5.1794535E-001	9.0933716E+001
0.0000000E+000	0.0000000E+000	0.0000000E+000	2.000000000000000E+000	5.1793838E-001	9.0874863E+001
0.0000000E+000	0.0000000E+000	0.0000000E+000	2.000000000000000E+000	5.1794809E-001	9.0820053E+001
0.0000000E+000	0.0000000E+000	0.0000000E+000	2.000000000000000E+000	5.1794863E-001	9.0758995E+001
0.0000000E+000	0.0000000E+000	0.0000000E+000	2.000000000000000E+000	5.1795411E-001	9.0713516E+001
0.0000000E+000	0.0000000E+000	0.0000000E+000	2.000000000000000E+000	5.1794642E-001	9.0660080E+001
0.0000000E+000	0.0000000E+000	0.0000000E+000	2.000000000000000E+000	5.1793945E-001	9.0605484E+001
0.0000000E+000	0.0000000E+000	0.0000000E+000	2.000000000000000E+000	5.1793623E-001	9.0551987E+001
0.0000000E+000	0.0000000E+000	0.0000000E+000	2.000000000000000E+000	5.1794511E-001	9.0502983E+001
0.0000000E+000	0.0000000E+000	0.0000000E+000	2.000000000000000E+000	5.1793849E-001	9.0454514E+001
0.0000000E+000	0.0000000E+000	0.0000000E+000	2.000000000000000E+000	5.1794147E-001	9.0401138E+001
0.0000000E+000	0.0000000E+000	0.0000000E+000	2.000000000000000E+000	5.1794189E-001	9.0356865E+001
0.0000000E+000	0.0000000E+000	0.0000000E+000	2.000000000000000E+000	5.1793820E-001	9.0302765E+001
0.0000000E+000	0.0000000E+000	0.0000000E+000	2.000000000000000E+000	5.1793158E-001	9.0256836E+001
5.0001852E+004	1.6636728E+000	-2.4540290E-002	2.000000000000000E+000	5.1792097E-001	8.9843475E+001
3.9461480E+004	1.6713157E+000	4.8063206E-003	2.000000000000000E+000	5.1792103E-001	8.9491020E+001
3.1147934E+004	1.6744537E+000	3.2035410E-002	2.000000000000000E+000	5.1792121E-001	8.9161896E+001
2.4588033E+004	1.6833963E+000	6.1089117E-002	2.000000000000000E+000	5.1793504E-001	8.8849403E+001
1.9410633E+004	1.6923105E+000	8.8000298E-002	2.000000000000000E+000	5.1793468E-001	8.8651489E+001
1.5318811E+004	1.7072909E+000	1.1865222E-001	2.000000000000000E+000	5.1793581E-001	8.8365356E+001
1.2089894E+004	1.7232325E+000	1.5122800E-001	2.000000000000000E+000	5.1793307E-001	8.8182617E+001
9.5475840E+003	1.7485683E+000	1.8615209E-001	2.000000000000000E+000	5.1790869E-001	8.7907509E+001
7.5337441E+003	1.7762501E+000	2.2213244E-001	2.000000000000000E+000	5.1791024E-001	8.7713020E+001
5.9476943E+003	1.8154299E+000	2.6186776E-001	2.000000000000000E+000	5.1791227E-001	8.7492233E+001
4.6935005E+003	1.8619603E+000	3.0090341E-001	2.000000000000000E+000	5.1792091E-001	8.7241600E+001
3.7038176E+003	1.9202232E+000	3.3741644E-001	2.000000000000000E+000	5.1792306E-001	8.6994324E+001
2.9240623E+003	1.9851375E+000	3.7017423E-001	2.000000000000000E+000	5.1792049E-001	8.6751678E+001
2.3077876E+003	2.0621986E+000	3.9461574E-001	2.000000000000000E+000	5.1792705E-001	8.6527031E+001
1.8217489E+003	2.1435640E+000	4.0596777E-001	2.000000000000000E+000	5.1791847E-001	8.6309074E+001
1.4377013E+003	2.2269545E+000	4.0924060E-001	2.000000000000000E+000	5.1791751E-001	8.6096252E+001
1.1346340E+003	2.3073416E+000	3.9507750E-001	2.000000000000000E+000	5.1791471E-001	8.5893692E+001
8.9585779E+002	2.3846941E+000	3.7342754E-001	2.000000000000000E+000	5.1792085E-001	8.5695816E+001
7.0703772E+002	2.4527721E+000	3.4647596E-001	2.000000000000000E+000	5.1791334E-001	8.5501389E+001
5.5803583E+002	2.5111463E+000	3.1404191E-001	2.000000000000000E+000	5.1791281E-001	8.5312225E+001
4.4042245E+002	2.5598223E+000	2.7858105E-001	2.000000000000000E+000	5.1790971E-001	8.5134705E+001
3.4766345E+002	2.5985174E+000	2.4187258E-001	2.000000000000000E+000	5.1791251E-001	8.4963158E+001
2.7438550E+002	2.6282542E+000	2.1026357E-001	2.000000000000000E+000	5.1791197E-001	8.4797333E+001
2.1659435E+002	2.6555545E+000	1.8131870E-001	2.000000000000000E+000	5.1791036E-001	8.4634300E+001
1.7103999E+002	2.6755672E+000	1.5515207E-001	2.000000000000000E+000	5.1791775E-001	8.4472893E+001
1.3495683E+002	2.6906657E+000	1.3323638E-001	2.000000000000000E+000	5.1790398E-001	8.4309647E+001
1.0653436E+002	2.7065005E+000	1.2040939E-001	2.000000000000000E+000	5.1789790E-001	8.4154984E+001
8.4111839E+001	2.7147145E+000	1.0586411E-001	2.000000000000000E+000	5.1790023E-001	8.4010475E+001
6.6380722E+001	2.7277279E+000	9.4400950E-002	2.000000000000000E+000	5.1790762E-001	8.3869980E+001
5.2397697E+001	2.7359388E+000	8.8871777E-002	2.000000000000000E+000	5.1791263E-001	8.3740250E+001
4.1363316E+001	2.7480814E+000	8.4089816E-002	2.000000000000000E+000	5.1790577E-001	8.3608177E+001
3.2649265E+001	2.7609465E+000	7.7441677E-002	2.000000000000000E+000	5.1789576E-001	8.3463028E+001
2.5766790E+001	2.7690303E+000	7.3699810E-002	2.000000000000000E+000	5.1789832E-001	8.3333542E+001
2.0331816E+001	2.7804413E+000	7.5944491E-002	2.000000000000000E+000	5.1790094E-001	8.3208839E+001
1.6053095E+001	2.7925475E+000	7.4525468E-002	2.000000000000000E+000	5.1790428E-001	8.3093750E+001
1.2668893E+001	2.8097091E+000	7.3735788E-002	2.000000000000000E+000	5.1788390E-001	8.2954720E+001
9.9968166E+000	2.8121307E+000	7.5961515E-002	2.000000000000000E+000	5.1790047E-001	8.2851051E+001
0.0000000E+000	0.0000000E+000	0.0000000E+000	3.000000000000000E+000	5.3589523E-001	8.9125298E+001
0.0000000E+000	0.0000000E+000	0.0000000E+000	3.000000000000000E+000	5.3590143E-001	8.8993927E+001
0.0000000E+000	0.0000000E+000	0.0000000E+000	3.000000000000000E+000	5.3590453E-001	8.8859947E+001
0.0000000E+000	0.0000000E+000	0.0000000E+000	3.000000000000000E+000	5.3590423E-001	8.8738182E+001
0.0000000E+000	0.0000000E+000	0.0000000E+000	3.000000000000000E+000	5.3589791E-001	8.8632065E+001
0.0000000E+000	0.0000000E+000	0.0000000E+000	3.000000000000000E+000	5.3590918E-001	8.8542427E+001
0.0000000E+000	0.0000000E+000	0.0000000E+000	3.000000000000000E+000	5.3590482E-001	8.8462845E+001
0.0000000E+000	0.0000000E+000	0.0000000E+000	3.000000000000000E+000	5.3590286E-001	8.8379402E+001
0.0000000E+000	0.0000000E+000	0.0000000E+000	3.000000000000000E+000	5.3591043E-001	8.8309814E+001
0.0000000E+000	0.0000000E+000	0.0000000E+000	3.000000000000000E+000	5.3591299E-001	8.8238930E+001
0.0000000E+000	0.0000000E+000	0.0000000E+000	3.000000000000000E+000	5.3589678E-001	8.8163719E+001
0.0000000E+000	0.0000000E+000	0.0000000E+000	3.000000000000000E+000	5.3589982E-001	8.8108131E+001
0.0000000E+000	0.0000000E+000	0.0000000E+000	3.000000000000000E+000	5.3589052E-001	8.8047035E+001
0.0000000E+000	0.0000000E+000	0.0000000E+000	3.000000000000000E+000	5.3590095E-001	8.7993660E+001
0.0000000E+000	0.0000000E+000	0.0000000E+000	3.000000000000000E+000	5.3589827E-001	8.7940376E+001
0.0000000E+000	0.0000000E+000	0.0000000E+000	3.000000000000000E+000	5.3589237E-001	8.7884071E+001
0.0000000E+000	0.0000000E+000	0.0000000E+000	3.000000000000000E+000	5.3589576E-001	8.7837807E+001
0.0000000E+000	0.0000000E+000	0.0000000E+000	3.000000000000000E+000	5.3590029E-001	8.7785492E+001
0.0000000E+000	0.0000000E+000	0.0000000E+000	3.000000000000000E+000	5.3590167E-001	8.7738609E+001
0.0000000E+000	0.0000000E+000	0.0000000E+000	3.000000000000000E+000	5.3590411E-001	8.7687355E+001
0.0000000E+000	0.0000000E+000	0.0000000E+000	3.000000000000000E+000	5.3589511E-001	8.7647087E+001
0.0000000E+000	0.0000000E+000	0.0000000E+000	3.000000000000000E+000	5.3589171E-001	8.7601791E+001
0.0000000E+000	0.0000000E+000	0.0000000E+000	3.000000000000000E+000	5.3590709E-001	8.7558678E+001
0.0000000E+000	0.0000000E+000	0.0000000E+000	3.000000000000000E+000	5.3590536E-001	8.7525116E+001
0.0000000E+000	0.0000000E+000	0.0000000E+000	3.000000000000000E+000	5.3589404E-001	8.7482803E+001
0.0000000E+000	0.0000000E+000	0.0000000E+000	3.000000000000000E+000	5.3589082E-001	8.7443550E+001
0.0000000E+000	0.0000000E+000	0.0000000E+000	3.000000000000000E+000	5.3589481E-001	8.7405251E+001
0.0000000E+000	0.0000000E+000	0.0000000E+000	3.000000000000000E+000	5.3590274E-001	8.7363373E+001
0.0000000E+000	0.0000000E+000	0.0000000E+000	3.000000000000000E+000	5.3589404E-001	8.7328445E+001
0.0000000E+000	0.0000000E+000	0.0000000E+000	3.000000000000000E+000	5.3591353E-001	8.7293037E+001
0.0000000E+000	0.0000000E+000	0.0000000E+000	3.000000000000000E+000	5.3589976E-001	8.7261505E+001
0.0000000E+000	0.0000000E+000	0.0000000E+000	3.000000000000000E+000	5.3590631E-001	8.7217758E+001
0.0000000E+000	0.0000000E+000	0.0000000E+000	3.000000000000000E+000	5.3589445E-001	8.7187004E+001
0.0000000E+000	0.0000000E+000	0.0000000E+000	3.000000000000000E+000	5.3588939E-001	8.7152954E+001
0.0000000E+000	0.0000000E+000	0.0000000E+000	3.000000000000000E+000	5.3589892E-001	8.7116425E+001
0.0000000E+000	0.0000000E+000	0.0000000E+000	3.000000000000000E+000	5.3590173E-001	8.7090271E+001
0.0000000E+000	0.0000000E+000	0.0000000E+000	3.000000000000000E+000	5.3590250E-001	8.7054855E+001
0.0000000E+000	0.0000000E+000	0.0000000E+000	3.000000000000000E+000	5.3589988E-001	8.7023109E+001
0.0000000E+000	0.0000000E+000	0.0000000E+000	3.000000000000000E+000	5.3589439E-001	8.6990021E+001
5.0001852E+004	1.6625980E+000	-2.1177743E-002	3.000000000000000E+000	5.3588915E-001	8.6760010E+001
3.9461480E+004	1.6674830E+000	1.0517433E-002	3.000000000000000E+000	5.3589469E-001	8.6549492E+001
3.1147934E+004	1.6732088E+000	3.8018424E-002	3.000000000000000E+000	5.3589725E-001	8.6345322E+001
2.4588033E+004	1.6821218E+000	6.8551637E-002	3.000000000000000E+000	5.3589594E-001	8.6167366E+001
1.9410633E+004	1.6932374E+000	9.7656690E-002	3.000000000000000E+000	5.3589684E-001	8.6049599E+001
1.5318811E+004	1.7071183E+000	1.2952623E-001	3.000000000000000E+000	5.3589886E-001	8.5886353E+001
1.2089894E+004	1.7258472E+000	1.6561104E-001	3.000000000000000E+000	5.3589481E-001	8.5779297E+001
9.5475840E+003	1.7519848E+000	1.9733836E-001	3.000000000000000E+000	5.3587258E-001	8.5621010E+001
7.5337441E+003	1.7845337E+000	2.3716472E-001	3.000000000000000E+000	5.3586596E-001	8.5512253E+001
5.9476943E+003	1.8231395E+000	2.7721852E-001	3.000000000000000E+000	5.3587902E-001	8.5384720E+001
4.6935005E+003	1.8734665E+000	3.1771952E-001	3.000000000000000E+000	5.3587949E-001	8.5250854E+001
3.7038176E+003	1.9320371E+000	3.5610193E-001	3.000000000000000E+000	5.3588808E-001	8.5116341E+001
2.9240623E+003	2.0015407E+000	3.8815615E-001	3.000000000000000E+000	5.3588504E-001	8.4981155E+001
2.3077876E+003	2.0846801E+000	4.1255429E-001	3.000000000000000E+000	5.3587377E-001	8.4850624E+001
1.8217489E+003	2.1687844E+000	4.2460829E-001	3.000000000000000E+000	5.3588378E-001	8.4727409E+001
1.4377013E+003	2.2570815E+000	4.2359856E-001	3.000000000000000E+000	5.3587586E-001	8.4612007E+001
